!Created with skrf (http://scikit-rf.org).
# GHz S RI R 50.0 
!freq ReS11 ImS11 ReS21 ImS21 ReS12 ImS12 ReS22 ImS22
290.0 -0.554827451706 -0.117048867047 -0.0333739295602 0.0366037376225 -0.000241244357312 0.000218219851376 -0.256777197123 0.0478460490704
290.204166667 -0.597173333168 0.540023684502 -0.0036908139009 0.00427450379357 -0.000193340223632 -0.00182858586777 -0.00956272706389 0.232213556767
290.408333333 0.17719706893 0.861852228642 -0.00236136675812 0.0236385650933 0.00134109263308 -0.000442473043222 0.252899467945 0.0381373502314
290.6125 0.664687097073 0.051395714283 0.00611809501424 -0.00705063808709 0.000821329245809 -0.000549434160348 0.0970265939832 -0.273728698492
290.816666667 0.0637882128358 -0.549511015415 -0.00490930955857 -0.00299866055138 0.00141111668199 0.00198601768352 -0.228438198566 -0.157626762986
291.020833333 -0.559502899647 0.0493509881198 -0.00203247740865 0.00111975986511 -0.00174469244666 0.00428108405322 -0.266692250967 0.274738132954
291.225 0.13602463901 0.529566824436 -0.00166394503321 0.00463619409129 -0.00245611649007 -0.000295200850815 0.161983370781 0.484416544437
291.429166667 0.632328093052 -0.218157812953 0.00874418020248 0.00409450894222 -0.00235745380633 -0.00041678789421 0.538817465305 0.191009581089
291.633333333 -0.0113617945462 -0.673596024513 0.00117924704682 -0.00217017787509 -0.00269193854183 -0.000879724044353 0.376984000206 -0.438156306744
291.8375 -0.552179098129 -0.106747038662 -0.00492756394669 0.00605766475201 -0.00615212414414 0.00318503938615 -0.208557799459 -0.392535328865
292.041666667 -0.0135417273268 0.389285743237 0.000431697029853 -0.00150689983275 0.00031844471232 0.00143789791036 -0.370600789785 0.14658126235
292.245833333 0.532380282879 -0.197959408164 0.000273798883427 -0.0019608840812 0.0012364856666 -0.000281841232209 0.149011209607 0.354365408421
292.45 -0.096357151866 -0.833271384239 0.000803935166914 -0.000267885363428 0.000868888921104 -0.000355481955921 0.378873378038 -0.0315734520555
292.654166667 -0.72262686491 -0.343013882637 -0.000582290056627 -0.00019985367544 0.000167408841662 -5.51555458514e-05 0.0415193066001 -0.414138734341
292.858333333 -0.584577202797 0.309802114964 0.00123425025959 -0.000606585585047 0.00041067256825 -0.000393268215703 -0.360564142466 -0.0996988043189
293.0625 0.119402296841 0.473428934813 0.000142792574479 0.000345735345036 0.000335737742716 -0.00106812641025 -0.181671559811 0.357181459665
293.266666667 0.258564472198 -0.0955189168453 -0.000137176917633 2.17566253014e-06 0.000701931596268 0.000613240990788 0.418693244457 0.26024723053
293.470833333 -0.211402729154 -0.187181934714 0.00237430213019 -0.0018788393354 0.000495135434903 0.000125344202388 0.497224211693 -0.300210654736
293.675 -0.219885706902 0.28055113554 0.00348286423832 -0.0024445343297 -8.12707730802e-05 -0.0013246035669 -0.0558109283447 -0.594523608685
293.879166667 0.233391806483 0.355682760477 0.00262742047198 0.000600613420829 0.00187428237405 0.0023964883294 -0.43324303627 -0.0808099284768
294.083333333 0.502989709377 -0.227382868528 -0.000130199405248 0.00925688724965 -0.0020378776826 0.000992125482298 -0.148421943188 0.29436147213
294.2875 -0.153438523412 -0.499504804611 -0.0125524606556 -0.00617302767932 0.0115995276719 0.00249068927951 0.168849989772 0.126334398985
294.491666667 -0.552459537983 0.150403380394 0.0188702438027 0.0109888128936 -0.00419765524566 -0.0103200934827 0.113614022732 -0.187464773655
294.695833333 0.0251922328025 0.732130885124 0.0121573153883 0.00894856918603 0.00383513257839 0.000487187178805 -0.14429704845 -0.408516347408
294.9 0.755418777466 0.28648647666 0.0124046951532 0.01120807603 0.00210216618143 0.00610971357673 -0.872522234917 -0.388466566801
295.104166667 0.79962092638 -0.362590163946 -0.00245927390642 -0.0140311000869 -0.0118110477924 0.0384487584233 -0.71362888813 1.172570467
295.308333333 0.128774359822 -0.792510807514 0.00517272111028 -0.0140180671588 0.0152271976694 -0.0184060838073 0.676935315132 0.366587013006
295.5125 -0.535649597645 -0.376561850309 0.0054550296627 -0.00552702927962 -0.00611938117072 0.0154222156852 0.491691440344 -0.467107921839
295.716666667 -0.409289449453 0.507414281368 0.0164682008326 0.0105463359505 -0.00418505771086 0.00415097875521 -0.252826362848 -0.589840471745
295.920833333 0.637432515621 0.490313023329 -0.00482079340145 0.00291315186769 -0.00390001782216 -0.00330427917652 -0.65583562851 0.0364310517907
296.125 1.07080352306 -0.457915604115 0.000602955755312 -0.00373043189757 -0.00126407400239 -0.000182454488822 -0.215290874243 0.431379765272
296.329166667 -0.129464447498 -1.59683012962 0.00834239181131 -0.0166800711304 -0.00105079519562 -0.000434799527284 0.182237863541 0.337254911661
296.533333333 -1.97630810738 -0.401328712702 0.0150180524215 -0.0393415391445 0.000678077223711 0.000430341053288 0.287934780121 -0.0583879128098
296.7375 -2.23677659035 1.75503718853 0.00846973899752 -0.00243947375566 -0.00051678851014 6.90555270921e-06 -0.0740959271789 -0.189034566283
296.941666667 0.343963712454 2.61651206017 0.0217742994428 0.00288039445877 -0.000486722565256 0.000960081291851 -0.234786480665 0.173975467682
297.145833333 2.2351872921 0.239482119679 0.00604113470763 0.0222268290818 0.000441608572146 -0.000103772828879 0.109213784337 0.319734066725
297.35 1.38066029549 -2.20192146301 -0.000546618190128 -0.0094848703593 0.000468101381557 -0.000131502834847 0.346803486347 0.0536640696228
297.554166667 -1.12533605099 -2.46829128265 0.00200439197943 -0.0169299710542 -8.696957957e-05 -0.000859655265231 0.246609658003 -0.282297819853
297.758333333 -2.50312328339 -0.925002336502 -0.00280048162676 0.00187536643352 -0.000190835868125 -0.000181804105523 -0.0930050909519 -0.290649801493
297.9625 -1.71450984478 2.16212105751 0.00640574563295 0.00762856472284 8.25039824122e-05 -0.000974833325017 -0.249616354704 -0.0158968120813
298.166666667 1.5686070919 1.65284764767 0.00839029531926 -0.003221712308 -0.000613063457422 0.00116272224113 -0.0204259715974 0.238677933812
298.370833333 1.66497266293 -0.918989300728 0.00686025852337 -0.00999456085265 0.000145874146256 0.000604140106589 0.240928068757 0.0878704935312
298.575 -0.685414195061 -1.57135641575 0.00369415525347 -0.000163164469996 -0.000103513048089 0.000377758027753 0.30752697587 -0.129096016288
298.779166667 -1.37643265724 0.274546831846 -0.00124650541693 0.00323354057036 -6.90232554916e-05 0.000174168308149 0.132200017571 -0.389829307795
298.983333333 -0.320209234953 1.35217940807 -0.00658417632803 0.00593404658139 0.000565569847822 0.000102725913166 -0.276988238096 -0.278501719236
299.1875 1.13468372822 0.812666714191 -0.00378517690115 0.00426432583481 -0.000189813916222 0.000222854141612 -0.276909947395 0.218028709292
299.391666667 0.979194521904 -0.512138724327 -0.000649284222163 -0.000340565078659 -6.08918389844e-06 0.000178762405994 0.296267896891 0.166235789657
299.595833333 -0.0862527340651 -0.882440209389 0.000187567769899 -0.00442900834605 -0.000135142166982 -4.08450141549e-05 0.222129017115 -0.363167792559
299.8 -0.707784175873 0.0564631745219 -0.00192631594837 -0.000198984649614 2.06823478948e-05 -0.000379898556275 -0.245509520173 -0.486678242683
300.004166667 -0.0713465213776 0.82679349184 0.00278297555633 -0.0005858487566 -0.000226629665121 -0.000223044902668 -0.644858658314 0.0693509876728
300.208333333 0.854004502296 0.804811656475 -0.00129332311917 0.000191364102648 -8.67609487614e-05 -0.000154660723638 -0.248197942972 0.559580743313
300.4125 1.18413090706 -0.429082512856 -0.000841638247948 0.000727240345441 -0.000257923908066 0.000282662222162 0.316678792238 0.493430137634
300.616666667 -0.0599330067635 -1.06192922592 1.69101585925e-05 -0.000650209956802 0.000274107063888 -0.000171576859429 0.438260674477 -0.0843764767051
300.820833333 -0.999992907047 -0.235929384828 -0.000351297465386 -0.000253029662417 -0.000235149316723 -8.2129619841e-05 -0.0401783175766 -0.330988645554
301.025 -0.492997258902 0.931508660316 -3.12869706249e-05 0.000361509271897 -0.000155776375323 -0.000933862000238 -0.497712761164 0.0469909384847
301.229166667 0.655889391899 0.619124054909 -8.07985779829e-05 0.000757322064601 -0.000284666399239 -8.34825186757e-05 -0.190539196134 0.646567046642
301.433333333 0.77482688427 -0.29046946764 -0.000203004688956 0.000875315570738 -2.74132958111e-07 8.4897808847e-05 0.421073406935 0.606649816036
301.6375 0.165515676141 -0.77327889204 0.000924028805457 0.000573211465962 0.00011942681158 0.000125519436551 0.77984380722 -0.0598203726113
301.841666667 -0.528385102749 -0.430666565895 -0.000128083062009 -0.000380936835427 2.50797893386e-05 0.000157240297995 0.168963313103 -0.598022937775
302.045833333 -0.429283320904 0.355695605278 -5.00605419802e-05 6.9964575232e-05 0.00100188679062 -0.000511069607455 -0.426596879959 -0.297891259193
302.25 0.327626407146 0.396989703178 -6.3954325924e-06 -0.000499268295243 7.20549724065e-05 -0.000692948990036 -0.462581068277 0.368211269379
302.454166667 0.504346132278 -0.197625353932 0.000593770644628 -0.000178059446625 -0.000549936434254 -0.000377414282411 0.224661871791 0.524539232254
302.658333333 -0.00617881631479 -0.689984500408 2.39603905356e-05 0.000280719570583 0.000272269360721 6.91776294843e-05 0.522499978542 0.0509302057326
302.8625 -0.755976617336 -0.364610731602 -0.000900324375834 -0.000187782599824 0.000118752817798 -9.16455901461e-05 0.319393604994 -0.496156811714
303.066666667 -0.944640338421 0.383381992579 0.000103189559013 0.000138394534588 0.000157165937708 6.79764343658e-05 -0.244105771184 -0.511115193367
303.270833333 -0.0854392722249 1.04973208904 1.31096257974e-05 0.000635959848296 0.000101108351373 -0.000278510095086 -0.4811655581 -0.00189797021449
303.475 0.994799613953 0.287820070982 -0.000439537252532 0.000186133896932 -0.000301148480503 0.000457912741695 -0.0832247138023 0.51348721981
303.679166667 0.545452237129 -0.806970834732 -0.000313491909765 0.000274689838989 -0.000210506404983 -0.000395937706344 0.711309790611 0.177511572838
303.883333333 -0.581289112568 -0.70707732439 -9.63516577031e-05 -7.62184427003e-05 5.36566076335e-05 -0.000149699437316 0.622484028339 -0.663628757
304.0875 -0.721585392952 0.29187387228 -6.85545310262e-05 2.34347717196e-05 1.67080415849e-05 -2.87004440906e-05 -0.236791178584 -1.13258302212
304.291666667 0.113176345825 0.653021097183 0.000120856639114 -5.61651359021e-06 -0.000112978930702 -6.73359536449e-05 -0.954009473324 -0.498557507992
304.495833333 0.57953441143 0.0335494689643 0.000103986894828 -3.89536580769e-05 -3.15364522976e-05 1.7758584363e-05 -0.81886780262 0.361297994852
304.7 0.174564808607 -0.548273861408 -0.000100679200841 -4.80375892948e-05 1.83687097888e-05 6.93671182717e-08 -0.0647856667638 0.835646748543
304.904166667 -0.521367013454 -0.48482683301 -0.000216328466195 0.0002849875018 -3.86148749385e-05 -9.99334133667e-07 0.612106561661 0.360749840736
305.108333333 -0.734337389469 0.285825371742 0.000103599035356 9.28545123315e-05 2.11102724279e-05 8.26849088753e-07 0.580504536629 -0.2998701334
305.3125 -0.129439756274 0.884489297867 -3.87301151932e-05 -8.30694407341e-05 -3.54886396963e-05 8.03890270618e-06 -0.0175476614386 -0.673741102219
305.516666667 0.764842748642 0.675753057003 -0.000101295758213 -0.000340821861755 -1.64116008818e-05 -8.67176640895e-05 -0.561560869217 -0.223068624735
305.720833333 1.15506911278 -0.47800591588 -8.4218891061e-06 -0.000364624196663 1.33331686811e-05 -3.66686117559e-06 -0.499433517456 0.328180044889
305.925 0.0124773383141 -1.37614870071 -0.000674501119647 -7.57524030632e-05 -7.86830714787e-05 0.000104587925307 0.0281260497868 0.562260568142
306.129166667 -1.11327576637 -0.55597025156 0.000172034240677 0.000147027269122 -1.4229625549e-06 -2.71487297141e-05 0.492674082518 0.158573389053
306.333333333 -0.625738739967 0.885184586048 -5.85685338592e-05 0.000241658490268 2.05984201784e-06 4.63198994112e-05 0.284176200628 -0.42424762249
306.5375 0.46856713295 0.847842216492 -0.00026642071316 6.11658106209e-05 -1.52184529725e-05 7.14289672032e-06 -0.460343658924 -0.421876996756
306.741666667 1.05708909035 0.154620274901 -0.000341479957569 0.000373316754121 -1.97053177544e-05 3.12972806569e-05 -0.549230694771 0.297644972801
306.945833333 0.763351678848 -0.869482159615 0.00012335536303 -0.00012500975572 3.54121802957e-05 -2.47583520832e-05 -0.0666974708438 0.607714354992
307.15 -0.308292329311 -0.830531537533 0.000138810893986 0.000274519145023 -2.07637622225e-05 3.68700202671e-05 0.597150862217 0.478860408068
307.354166667 -0.72452044487 -0.0780755281448 0.000215324282181 0.000414910609834 6.8046276283e-05 -3.66048916476e-05 0.714154541492 -0.331814467907
307.558333333 -0.439727038145 0.65778952837 -0.000193592146388 0.000917545345146 -1.923859827e-06 -1.94013191503e-05 -0.0016663185088 -0.606093347073
307.7625 0.596738040447 0.706221401691 -0.000634297379293 0.000357631128281 -1.67415510077e-05 -4.26447004429e-05 -0.508086383343 -0.122484833002
307.966666667 0.837784230709 -0.0173639282584 0.000366825319361 -7.00930395396e-05 -9.05105989659e-05 -2.10976359085e-05 -0.180735602975 0.478036254644
308.170833333 0.341867804527 -0.830496013165 -0.000393870461266 -8.88614304131e-05 -1.32580162244e-05 -5.74894556848e-06 0.411643356085 0.369977235794
308.375 -0.686573982239 -0.698293924332 -0.000186408127774 -0.000190983497305 2.96883263218e-05 -6.87001738697e-05 0.624460458755 -0.195021227002
308.579166667 -0.910844326019 0.196134164929 -7.13406989234e-05 -7.15138776286e-06 2.38830634771e-05 3.49315196218e-05 0.226859286427 -0.714885354042
308.783333333 -0.293793827295 0.906899273396 4.87306970172e-05 -0.000602870364673 -2.29950419453e-05 -4.02227487939e-06 -0.389945566654 -0.555438935757
308.9875 0.698189079762 0.414921611547 0.000445003912318 0.000349840294803 -1.40877700687e-05 4.48987011623e-05 -0.642533063889 0.0316301733255
309.191666667 0.664737224579 -0.443784326315 -0.0011307898676 0.000994700239971 -1.34453093779e-05 -5.03670562466e-05 -0.175539925694 0.598654091358
309.395833333 -0.01803259179 -0.944346904755 -3.35528020514e-05 0.000110143118945 -7.0098983997e-05 4.08563573728e-05 0.477258175611 0.340401172638
309.6 -0.976355314255 -0.502028167248 -2.0180887077e-05 0.000437884300482 -1.09503034764e-05 4.11267428717e-05 0.572917222977 -0.266696482897
309.804166667 -0.890755832195 0.545711934566 0.000117692077765 -9.12661780603e-05 -0.000103624952317 -4.75463602925e-05 0.0631060153246 -0.699343562126
310.008333333 -0.00942018069327 0.962366104126 -0.000300776475342 0.000366472086171 1.19291953524e-05 1.13546129796e-05 -0.52015966177 -0.33745059371
310.2125 0.748469173908 0.42436850071 -8.60462314449e-05 6.6011409217e-05 3.41345657944e-05 -2.6504332709e-05 -0.531100094318 0.227461114526
310.416666667 0.512564122677 -0.32740059495 -0.000263391179033 0.000251816556556 8.19829729153e-05 5.5120599427e-06 -0.0831438302994 0.560703635216
310.620833333 -0.110064938664 -0.50147330761 -6.93136680638e-05 2.4617618692e-05 -7.07594444975e-05 -3.77279343411e-06 0.401444852352 0.167179584503
310.825 -0.525187313557 -0.0405303128064 -4.99967027281e-05 -1.44944260683e-05 -2.94401543215e-05 -0.000105686995084 0.227362066507 -0.354519337416
311.029166667 -0.318354010582 0.455170661211 -5.8694389736e-05 3.87689794934e-07 8.48051422508e-05 6.39814388705e-05 -0.250969618559 -0.346703112125
311.233333333 0.248703718185 0.550248682499 0.000174808723386 0.000162802578416 -0.000137562223244 -0.000123250792967 -0.4905397892 0.0433899834752
311.4375 0.551439464092 0.00653588213027 5.57465973543e-05 3.0372184483e-05 7.7252749179e-05 -0.000139933559694 -0.342755824327 0.446382731199
311.641666667 0.144687131047 -0.480856567621 3.04121949739e-05 -0.000115332586574 4.40340591013e-05 1.70260009327e-05 0.112334698439 0.576609194279
311.845833333 -0.521859943867 -0.316499561071 7.87607314123e-06 6.06071589573e-05 3.77245487471e-06 -2.62830326392e-05 0.487741172314 0.171859383583
312.05 -0.495532900095 0.477567493916 -0.000202343348064 0.000447008525953 7.55273458708e-06 -1.50362902787e-05 0.339538693428 -0.310853093863
312.254166667 0.229066506028 0.720993995667 0.000219748762902 -0.000634953379631 4.11944074585e-06 1.3033071582e-06 -0.148119181395 -0.437990188599
312.458333333 0.731717407703 0.250042140484 0.000347018882167 0.000394989270717 -1.47246983033e-05 -1.14233425847e-05 -0.531639754772 -0.0244740899652
312.6625 0.719297170639 -0.43315371871 0.000308892602334 0.000208952522371 7.32419284759e-05 -0.000150305742864 -0.391907036304 0.50704151392
312.866666667 0.0283504873514 -0.845622718334 0.000104616381577 -0.000549306860194 -2.07048688026e-05 -4.75563792861e-05 0.146672084928 0.774870991707
313.070833333 -0.63069742918 -0.444603443146 -6.14122327534e-05 -0.000190941005712 -7.25922873244e-05 -7.96985332272e-05 0.817338645458 0.343342989683
313.275 -0.616335511208 0.364132732153 -0.000114776310511 -8.76246194821e-05 9.7895746876e-05 4.68374455522e-05 0.586140871048 -0.504740655422
313.479166667 0.206543117762 0.604557037354 -0.0005254772841 0.000393398775486 -2.26414867939e-05 -9.85002861853e-06 -0.135042384267 -0.652129113674
313.683333333 0.608507692814 0.0268003959209 -0.000139814932481 4.51327832707e-05 6.58100952933e-06 -0.000199186673854 -0.759761929512 -0.069356046617
313.8875 0.457269370556 -0.549838483334 -8.69486248121e-05 0.000461367657408 0.000492945720907 0.000418334006099 -0.387392938137 0.76684063673
314.091666667 -0.239493370056 -0.860071539879 -4.38779679826e-05 0.000358927529305 9.7886826552e-05 0.000206925848033 0.572070658207 0.888486981392
314.295833333 -0.877479851246 -0.276187986135 -0.000361284590326 0.0002077363024 -5.25520681549e-06 6.30083741271e-05 1.22943603992 0.140577122569
314.5 -0.628896594048 0.476528078318 1.09750590127e-05 3.8767400838e-05 7.18626615708e-05 3.40251244779e-05 0.948572218418 -0.838252425194
314.704166667 0.117980062962 0.729324162006 -0.000111991343147 -0.000181780691491 -6.70712615829e-05 0.000329805188812 -0.0806580632925 -0.922085642815
314.908333333 0.653845191002 0.213667288423 8.77562342794e-05 4.46878766525e-05 -3.10725954478e-05 -0.000426259997766 -0.709500908852 -0.450624227524
315.1125 0.477795928717 -0.469344109297 -0.000282170396531 -8.73888420756e-05 0.000128971340018 5.4620042647e-05 -0.610414087772 0.520127356052
315.316666667 -0.145775258541 -0.687851309776 -1.73214430106e-05 -0.000162033553352 0.000212746890611 6.87260617269e-05 0.242588996887 0.96300470829
315.520833333 -0.68147701025 -0.240011900663 -0.000184303047718 2.91977175948e-05 -0.000186628167285 -0.000259125925368 1.27663838863 0.378777503967
315.725 -0.456794679165 0.372390478849 8.14204395283e-05 0.00012540059106 -0.00011467764125 -6.98051226209e-05 0.862750053406 -1.17807734013
315.929166667 -0.0178780183196 0.604040324688 1.13646901809e-05 -4.3757822823e-06 3.91490757465e-05 4.08170672017e-05 -0.579127132893 -1.05469584465
316.133333333 0.559847831726 0.376976191998 -3.22305386362e-05 -7.41677868064e-05 6.31705261185e-05 -4.1001207137e-05 -0.996731936932 0.0381941534579
316.3375 0.5178784132 -0.393003672361 5.90487361478e-05 5.02692410009e-06 2.11388996831e-05 8.20230798126e-06 -0.756420493126 0.721291184425
316.541666667 -0.0997581481934 -0.581310510635 -2.66866627499e-05 8.32180649013e-06 -6.29815076536e-06 1.6635252905e-05 -0.0206049550325 0.90927118063
316.745833333 -0.650323092937 -0.281927317381 -6.95035560057e-05 2.13022649405e-05 -3.72697218154e-06 5.16325364686e-08 0.719556450844 0.131411105394
316.95 -0.71795207262 0.542380094528 8.11731806607e-05 6.97433847563e-07 -6.8734193519e-06 7.79995298217e-06 0.451858639717 -0.543965101242
317.154166667 0.128474369645 0.865438997746 1.09373049781e-05 4.39838222519e-05 1.41342725328e-05 -1.12648267532e-05 -0.323591887951 -0.697117209435
317.358333333 0.772247374058 0.473091363907 -1.09482539301e-06 -5.33200591235e-06 1.2472911294e-05 -2.37848598772e-05 -0.798450291157 -0.160131022334
