!Created with skrf (http://scikit-rf.org).
# GHz S RI R 50.0 
!freq ReS11 ImS11 ReS21 ImS21 ReS12 ImS12 ReS22 ImS22
290.0 -0.0198422409594 0.198440313339 0.030389059335 0.0316682048142 0.00749185401946 0.00277260690928 -0.0107740750536 -0.0420986153185
290.204166667 0.0778674855828 0.224484026432 -0.0120506649837 -0.0154759408906 0.00225939275697 0.00292440433986 -0.0431914366782 -0.025186246261
290.408333333 0.167989447713 0.118955269456 -0.0147408340126 0.00345663819462 0.00132130121347 -0.000561037333682 -0.0795305296779 0.00412771943957
290.6125 0.103978328407 0.0078714704141 0.000796251057182 0.000398138916353 -0.000307435169816 -0.000520764908288 -0.0811132341623 0.0627922862768
290.816666667 0.00053002871573 -0.023132385686 0.0113789802417 -0.00266746128909 0.000703509023879 -0.000263693276793 -0.0474984757602 0.101024866104
291.020833333 0.00160109356511 0.0615149401128 0.0024983973708 0.00138185615651 -0.00143625785131 -0.00334231765009 0.0359326191247 0.127935111523
291.225 0.0821869745851 0.0329444333911 0.00130573357455 -0.0015230482677 5.86090391153e-05 0.00374068669043 0.102968893945 0.113668240607
291.429166667 0.138435140252 -0.0331366993487 -0.00396131677553 -0.00130381016061 -0.000553316087462 0.000274136837106 0.150622010231 0.0463657155633
291.633333333 0.158725097775 -0.120512500405 0.00184040819295 -0.00522158341482 -0.0054367640987 -0.000969364307821 0.135541290045 -0.0302786156535
291.8375 0.157688707113 -0.197802111506 0.00359248835593 -0.00523798540235 -0.00167878938373 -0.00325006595813 0.0943612232804 -0.0585776790977
292.041666667 0.126533657312 -0.297349303961 -0.00398271763697 -0.000369382818462 -0.000597448262852 -0.000215934589505 0.0422018542886 -0.0788798630238
292.245833333 -0.0884242281318 -0.329391479492 -0.00226509687491 -0.000558475730941 -0.000872890930623 0.000190776743693 -0.00251137441956 -0.0642928108573
292.45 -0.271017044783 -0.242644488811 -0.000432871456724 0.000589880743064 0.000576781691052 0.000414626207203 -0.0205268394202 -0.0243189986795
292.654166667 -0.322081714869 -0.0706135481596 0.00112275185529 -0.000824813672807 0.000369525863789 0.000307370937662 -0.00308532803319 0.0169762521982
292.858333333 -0.234617337584 0.0677910223603 0.000112064772111 0.000501606147736 -0.000518455985002 0.000490429461934 0.0627760514617 0.0298306588084
293.0625 -0.114827468991 0.125347554684 0.000136923379614 -0.000824410584755 -0.00115513475612 -0.000188172678463 0.131690770388 -0.0107425143942
293.266666667 -0.01747280173 0.130219981074 0.00242247548886 -0.00152910279576 0.000621306244284 -0.000966530409642 0.148880496621 -0.0891142860055
293.470833333 0.061093647033 0.126706510782 -0.00222112238407 -0.00188774242997 -0.000145322541357 -0.00164117314853 0.101146906614 -0.17316929996
293.675 0.0962524935603 0.0640184208751 0.00151467463002 0.00184070749674 -0.000242580877966 -0.000187223005923 -0.0191624686122 -0.199571490288
293.879166667 0.0948072522879 -0.00282388040796 -0.00434667803347 -0.00440125074238 0.00258311163634 0.00135375675745 -0.119498550892 -0.129295364022
294.083333333 0.0291069857776 -0.059426933527 -0.00195164862089 -0.00533850723878 -6.92678659107e-05 0.00666571874171 -0.170956432819 -0.0557594969869
294.2875 -0.00296829384752 0.0114378547296 -0.00262014032342 -0.00106763478834 0.00401028525084 0.00332667282782 -0.176976680756 -0.0480482019484
294.491666667 0.0402275025845 0.0654292851686 0.00273048761301 -0.0171005446464 -0.00176806503441 0.00130201550201 -0.156078279018 -0.0124961370602
294.695833333 0.132468447089 0.0783202946186 -0.00459558749571 -0.00327669410035 0.00232345750555 -0.0197946485132 -0.177964866161 -0.0370054505765
294.9 0.206000909209 0.00771164800972 0.0300536304712 0.0155205056071 0.00864802673459 -0.0144968209788 -0.266334116459 0.0237893871963
295.104166667 0.190107434988 -0.0447036549449 -0.000989874592051 0.00468893442303 0.00870762486011 -0.0149499597028 -0.1018987149 0.157515898347
295.308333333 0.168606027961 -0.10801295191 -0.00543850287795 0.000430861895438 0.00934596825391 0.0427077151835 0.0321288332343 0.057558465749
295.5125 0.17785987258 -0.144280821085 0.00585755426437 -0.0030735982582 0.0143253589049 -0.00371481128968 -0.0968515574932 -0.0573336444795
295.716666667 0.192605242133 -0.225554406643 -0.00321261258796 -0.00687863165513 0.00192229216918 0.00223319139332 -0.153921723366 -0.00660002464429
295.920833333 0.130847081542 -0.350962400436 0.0264883507043 0.0464811064303 0.00270275725052 0.00196150620468 -0.163779556751 0.0633496120572
296.125 -0.0269227791578 -0.453086405993 -0.0073628090322 -0.0195040889084 -0.00333751831204 -0.00220840470865 -0.0957608819008 0.108960926533
296.329166667 -0.35547927022 -0.356116890907 0.00498200859874 0.00283292867243 -0.000193429063074 -0.00039648040547 -0.0399668030441 0.116984345019
296.533333333 -0.536314845085 -0.0263084825128 0.0115857226774 0.00185076706111 0.000278043415165 0.000282971013803 0.00136924546678 0.129677429795
296.7375 -0.552962720394 0.118415549397 -0.0153438895941 0.038521245122 -0.00155909731984 0.000194982552784 0.0825332775712 0.137289553881
296.941666667 -0.376458138227 0.0566295981407 0.00398925552145 0.024597806856 -0.000595131132286 -0.000443079945398 0.149910643697 0.094440124929
297.145833333 -0.292986959219 0.0217293780297 -0.004262895789 -0.00952478311956 1.39588437378e-05 0.000205775228096 0.14154689014 0.0186458975077
297.35 -0.3344630301 -0.0385584235191 -0.0112091032788 0.0144536690786 0.00058304175036 0.000726017693523 0.105869181454 -0.0519657768309
297.554166667 -0.292712509632 -0.0902973338962 -0.00477154087275 0.00379455462098 -3.46522065229e-05 -0.000135513051646 0.0576672255993 -0.0760981887579
297.758333333 -0.236032307148 -0.117639563978 0.014176693745 -0.00193015125114 -0.000477693742141 -0.000145655576489 0.0230370424688 -0.0616871900856
297.9625 -0.219440445304 -0.181808263063 0.00274953199551 -0.00448698829859 -0.000632491079159 0.000565179507248 0.00620081648231 -0.0394984520972
298.166666667 -0.364839464426 -0.340016752481 0.00966993719339 -0.00810461863875 0.000199634872843 -0.000411094777519 0.0117147248238 -0.0284840259701
298.370833333 -0.586148142815 -0.3229162395 -0.000840558903292 0.00577913224697 -0.000764713156968 0.000598232727498 0.0250899940729 -0.0333766415715
298.575 -0.597257971764 0.00714508024976 -0.00663037691265 0.000782439019531 -0.000177391077159 -0.000510342244525 0.0386439338326 -0.0421739034355
298.779166667 -0.334459394217 0.341864407063 0.00172602792736 0.00631359871477 -0.000513396807946 -0.000187508645467 0.0532772317529 -0.0529407821596
298.983333333 -0.0305101815611 0.417048096657 0.003044962883 0.00680311443284 0.000316975230817 0.000439513416495 0.058770570904 -0.0884213447571
299.1875 0.158382609487 0.348344057798 -0.00451115425676 0.00402502855286 -0.00018945337797 5.70827205593e-06 0.022844042629 -0.157218158245
299.391666667 0.25670132041 0.276864171028 -0.00110412808135 0.000518477521837 -0.000424604688305 0.000101887737401 -0.0738356634974 -0.199615508318
299.595833333 0.313533246517 0.242474988103 1.46490820043e-05 0.000971143192146 -7.71942650317e-05 0.000159608011018 -0.173406660557 -0.155497014523
299.8 0.30749464035 0.168715700507 0.00313259498216 -0.00186891900375 0.000216727305087 -0.000134542497108 -0.214139908552 -0.0659339725971
300.004166667 0.329599112272 0.00359686650336 0.000873830809724 -0.00212365738116 -0.000308813905576 -3.40006226907e-05 -0.217753112316 0.0733108818531
300.208333333 0.299832075834 -0.0964837670326 -0.000353271549102 -0.000951135356445 -0.000165371908224 -0.000430813874118 -0.140445202589 0.171735301614
300.4125 0.167189180851 -0.172904461622 5.60112857784e-05 -0.000238957174588 -0.00036494655069 0.000544366135728 -0.0561272092164 0.214549392462
300.616666667 -0.0011018657824 -0.146508917212 -0.000132947432576 0.000313006632496 -3.16109690175e-05 -0.000641509890556 0.0160218086094 0.217522114515
300.820833333 -0.0486015677452 -0.0392307974398 -8.25320748845e-05 -0.000104378465039 -4.8672362027e-05 -0.000293263001367 0.0807550549507 0.197823554277
301.025 0.0106668584049 0.0358496308327 -0.000108000560431 -0.000270020478638 -0.000870257150382 0.000192066145246 0.130864486098 0.172510504723
301.229166667 0.0798344835639 0.00501836510375 -0.000585688860156 -0.000247448362643 0.000230331876082 0.00103661150206 0.154968440533 0.120740309358
301.433333333 0.0720783919096 -0.0387356430292 0.000487373385113 -0.00022911861015 8.04240517027e-06 0.000523910159245 0.149956688285 0.0581512898207
301.6375 0.059297259897 -0.0455147512257 -0.000701464421581 -0.000848162861075 0.000321183353662 -0.000263637630269 0.108422927558 -0.00248936843127
301.841666667 0.0614921338856 -0.0400181598961 -0.000361523154425 0.000240952795139 0.000198756591999 -4.34554094682e-05 0.0397821255028 -0.00206765183248
302.045833333 0.0702767446637 -0.0626947581768 -0.000102198901004 -3.57060380338e-05 -0.000132013534312 -0.00020655078697 0.0208917502314 0.0455518178642
302.25 0.0265369620174 -0.12603995204 0.000192674604477 -0.000271388271358 -0.000162346987054 0.000512874161359 0.0499961301684 0.081272393465
302.454166667 -0.0523579157889 -0.128834307194 0.000708788749762 -5.72377348362e-06 -0.000230520992773 0.000908651505597 0.101743362844 0.0620906539261
302.658333333 -0.121081896126 -0.0811762735248 0.000941607751884 0.00140568055212 -0.000468155863928 -0.000570601143409 0.120606422424 9.43392660702e-05
302.8625 -0.16011723876 0.000107311585452 -0.000337088800734 -0.000699654628988 6.59481593175e-05 0.00010359458247 0.11635119468 -0.0589370839298
303.066666667 -0.144109472632 0.0600913167 -0.00014917551016 -0.00033205919317 -9.45455030887e-05 0.000157501606736 0.114211462438 -0.0966317430139
303.270833333 -0.07128559798 0.0808186009526 0.000594346958678 1.653569052e-05 -0.000152338077896 -0.000526456802618 0.0941080898046 -0.13900360465
303.475 -0.0138719668612 0.0674008652568 -0.000232660167967 0.000829840777442 0.000140527103213 -0.000240966153797 0.0623570717871 -0.177654355764
303.679166667 -0.00452296342701 0.0330720692873 -4.23465571657e-05 0.000104254839243 0.000184854114195 -0.000400629302021 -0.0135536668822 -0.243207201362
303.883333333 -0.0110740708187 0.0271822847426 -0.000426883343607 0.000268692587269 -0.000150893640239 5.61955093872e-05 -0.113430798054 -0.228506565094
304.0875 0.00117269996554 0.0276826135814 -0.000280744599877 -6.57648779452e-05 2.16554744839e-05 -7.77404638939e-05 -0.193696111441 -0.162795200944
304.291666667 0.0157832782716 0.00261128367856 0.00013829227828 0.000155898407684 -0.000119598611491 6.26658438705e-05 -0.18394766748 -0.0641649663448
304.495833333 -0.0118393236771 -0.0180726200342 1.89965376194e-05 0.000120443357446 -9.5478771982e-06 -3.52208298864e-05 -0.120925478637 0.0101299788803
304.7 -0.0538948141038 0.00697306916118 -6.59708312014e-05 2.71213707492e-06 -1.88257454283e-05 2.40079862124e-05 -0.0556919239461 0.0308862477541
304.904166667 -0.0709184929729 0.0811442583799 0.000405768543715 -0.000182909090654 -9.65066101344e-06 -9.26693464862e-05 -0.011086110957 0.00960291456431
305.108333333 -0.0131630962715 0.139499589801 -0.000118976968224 -0.000144977428135 6.52079615975e-05 -1.14205740829e-05 0.000953905167989 -0.0211150795221
305.3125 0.0793722346425 0.149146854877 -6.06246103416e-05 -0.000144708901644 -9.29648740566e-05 6.95906783221e-05 -0.0116954902187 -0.03704566136
305.516666667 0.160106807947 0.0838207751513 9.03468389879e-05 -0.000105325154436 -4.2678162572e-05 -1.71772535396e-05 -0.0257976669818 -0.0356613472104
305.720833333 0.180953711271 -0.0115766366944 0.000643884006422 6.12058720435e-05 1.37538763738e-05 -5.98644146521e-05 -0.0370345525444 -0.0436728671193
305.925 0.168528303504 -0.0706033930182 -0.000198575973627 -0.000364261650247 5.18287270097e-05 2.91996883561e-07 -0.0548455007374 -0.0553598925471
306.129166667 0.155674442649 -0.0921631008387 -0.000277328217635 -0.000493673374876 -1.9818164219e-05 -3.72500107915e-05 -0.0943161696196 -0.0562557056546
306.333333333 0.119836680591 -0.13616925478 0.000512444588821 0.000604412576649 3.81608369935e-05 -8.24770031613e-05 -0.132125288248 -0.00784739293158
306.5375 0.0939887538552 -0.159000203013 -0.00067014870001 -0.000338193116477 -6.59367578919e-05 -5.00032947457e-05 -0.125551924109 0.0853613168001
306.741666667 0.042512934655 -0.17978733778 0.000490109203383 0.000152076725499 -2.13842758967e-05 -3.08368325932e-05 -0.0591224581003 0.141878768802
306.945833333 -0.0251344032586 -0.150067329407 -0.000175437889993 0.000398155010771 2.41775560426e-05 -3.51735070581e-05 0.0188641138375 0.151869818568
307.15 -0.0535157807171 -0.0701743885875 -0.000723110279068 0.000287112110527 -1.57457252499e-05 -8.01322967163e-05 0.107069410384 0.137173593044
307.354166667 -0.0380734875798 -0.00604503182694 -5.77970131417e-05 4.42936980107e-05 6.65879269945e-05 -4.11619403167e-05 0.158042699099 0.0781969577074
307.558333333 0.0133086787537 0.0124559532851 0.000844171678182 0.000311090843752 -2.08177016248e-06 4.29056626672e-06 0.149396657944 0.00925206858665
307.7625 0.0756751149893 -0.0269994679838 -0.000111908964755 -0.000213448540308 -4.57028763776e-05 4.29847787018e-05 0.123897321522 -0.0389056578279
307.966666667 0.0847416818142 -0.0843410417438 0.00117985717952 0.000528623175342 1.64979537658e-05 2.06879358302e-05 0.10363432765 -0.0689543560147
308.170833333 0.0176957268268 -0.13674993813 4.52244130429e-05 -0.000248032010859 -5.16699765285e-06 -4.27973936894e-05 0.0724342241883 -0.100280582905
308.375 -0.0536978244781 -0.135644599795 -0.00079694960732 0.000448778941063 4.76151726616e-05 -4.79101399833e-05 0.018377609551 -0.110931143165
308.579166667 -0.0908244252205 -0.127056106925 3.32382624038e-05 -7.19166273484e-05 -4.71771418233e-05 -2.73864607152e-05 -0.0177275873721 -0.0889655202627
308.783333333 -0.12394439429 -0.149853333831 -6.44644896965e-05 -1.67819507624e-05 -1.34363081088e-05 -2.87856564682e-05 -0.0213750544935 -0.0411514006555
308.9875 -0.172441497445 -0.150693833828 0.000472976884339 0.000199064044864 4.10096617998e-05 -9.44692601479e-06 0.00590979261324 -0.00688963197172
309.191666667 -0.218385472894 -0.149636298418 -0.00028286469751 -8.63300156198e-05 6.15694152657e-05 -8.73304361448e-06 0.0461005307734 -0.0081468494609
309.395833333 -0.269154042006 -0.0820674747229 0.000285178452032 -0.000597840349656 2.42685655394e-05 -3.38906465913e-05 0.0651043131948 -0.0448015555739
309.6 -0.280289083719 0.0480124875903 0.00060269999085 -0.000745606666896 2.57690571743e-05 4.67083700642e-05 0.0496700629592 -0.0863288938999
309.804166667 -0.195354416966 0.15836058557 0.000256797444308 7.1289447078e-05 1.53307682922e-05 2.4352013952e-06 0.0157371964306 -0.114827685058
310.008333333 -0.0782716870308 0.185393318534 0.000174247150426 4.01555662393e-05 2.16733315028e-06 -7.00472673998e-06 -0.0328812859952 -0.118660345674
310.2125 -0.0179547332227 0.155901715159 0.000121425822726 -1.32796421894e-05 9.20479578781e-06 -1.52998109115e-05 -0.0800388976932 -0.113864868879
310.416666667 -0.0107794394717 0.105328835547 7.74782965891e-05 0.000116995004646 -0.00010058737098 4.16274851887e-05 -0.114965446293 -0.119664892554
310.620833333 -0.0109397759661 0.0829673632979 0.000130028871354 0.000186645003851 4.07581501349e-05 -0.000105489903945 -0.132050812244 -0.0894906967878
310.825 0.00203905184753 0.0806168168783 8.83391840034e-06 7.98521068646e-05 -3.23122731061e-05 0.000102513935417 -0.143499597907 -0.0243321955204
311.029166667 0.0201994013041 0.0809710621834 -1.66664340213e-05 -0.000137758484925 3.72856593458e-05 -1.38933792186e-05 -0.114216394722 0.0308693610132
311.233333333 0.0481547191739 0.0589496642351 2.97423093798e-06 4.55015106127e-05 -0.000114289192425 0.000125289006974 -0.101115569472 0.0750404521823
311.4375 0.0362572669983 0.0227847900242 -7.93096842244e-06 2.57383962889e-05 -3.03406231978e-05 -2.98592731269e-05 -0.074927739799 0.114991337061
311.641666667 0.0147197134793 0.0292198508978 9.67257947195e-05 4.35711044702e-05 -6.3530242187e-05 -2.3786436941e-05 -0.0283288732171 0.1209975034
311.845833333 0.034809269011 0.0821655914187 3.75244562747e-05 0.000153203582158 -1.59661394719e-05 2.66875213129e-05 0.00669006025419 0.0981400460005
312.05 0.102679520845 0.0954766571522 -0.000446986436145 0.000949868059251 -1.93948289962e-05 -5.15254287166e-05 0.0160494111478 0.083302423358
312.254166667 0.164968028665 0.0600743703544 0.000434057670645 0.000301884545479 2.16505395656e-05 -7.22765398677e-05 0.0153623968363 0.0726445689797
312.458333333 0.185201406479 -0.0181917659938 3.66572999155e-06 0.000162259035278 -2.37695221585e-05 -4.26726546721e-05 0.0187403019518 0.072044081986
312.6625 0.164218693972 -0.0859272256494 -0.000296221900498 0.000762608076911 3.31100545736e-06 4.22041412094e-05 0.0278359595686 0.0814551189542
312.866666667 0.122016556561 -0.13022865355 9.27965156734e-05 -7.66582525102e-05 -1.62398791872e-05 8.4224906459e-05 0.0390485785902 0.0834275260568
313.070833333 0.0938507318497 -0.159018948674 0.000111356537673 -0.00012605068332 -4.15586036979e-05 -2.89048984996e-05 0.0458557568491 0.0768527984619
313.275 0.0715275034308 -0.192884907126 -9.84485741355e-05 -0.000216939602979 0.000116474926472 9.26490101847e-05 0.0479452013969 0.0743227303028
313.479166667 0.0307957082987 -0.200332000852 -0.000283927802229 9.15361451916e-05 0.000104275357444 -0.000221963011427 0.0511052720249 0.0849481672049
313.683333333 -0.0213434677571 -0.188856467605 -0.000322732434142 0.000236313106143 -6.59156794427e-05 0.000103136932012 0.0862119719386 0.103838726878
313.8875 -0.082920409739 -0.179485499859 -0.000127111852635 -0.000457364832982 0.000267150287982 -1.5023962078e-05 0.141002327204 0.108157940209
314.091666667 -0.154323786497 -0.128329351544 -3.40731603501e-05 -4.96096436109e-05 0.000101457808341 0.000103423692053 0.239554703236 0.0594029277563
314.295833333 -0.174948036671 -0.0395379960537 2.78406205325e-05 -0.000124029160361 1.0891149941e-05 5.65575501241e-05 0.27434951067 -0.0454772002995
314.5 -0.126657009125 0.0321540907025 5.90041126998e-05 2.51074357038e-06 3.44319755641e-06 0.000250088778557 0.25270023942 -0.112555041909
314.704166667 -0.0634546130896 0.0483685806394 0.000143721685163 -0.000133122885018 0.00023183193116 -0.000107889492938 0.161028236151 -0.164014846087
314.908333333 -0.0371892228723 0.0167211387306 0.000140496340464 -5.63391295145e-05 0.00020639495051 -0.000493723258842 0.106139183044 -0.201080560684
315.1125 -0.0486922189593 -0.0102529432625 -8.32308942336e-05 8.1195961684e-05 -0.000113018802949 -0.000155354922754 0.0440383963287 -0.227902829647
315.316666667 -0.0721637532115 -0.00587635813281 -3.83989536203e-05 -4.33766290371e-05 4.06581748393e-05 6.2101164076e-05 0.0631610527635 -0.318078219891
315.520833333 -0.0702460929751 0.0196069143713 4.17203555116e-05 2.01182865567e-05 7.71677368903e-05 -4.30574436905e-05 0.00804491341114 -0.403064757586
315.725 -0.0416299402714 0.0305025577545 1.27446010083e-05 8.45795220812e-05 0.000133305948111 -4.03620215366e-05 -0.174138024449 -0.306987941265
315.929166667 -0.0315002202988 0.0207941289991 8.38033884065e-05 6.72884852975e-05 -7.5688418292e-05 5.18414744874e-05 -0.222498416901 -0.131761342287
316.133333333 -0.0462331622839 -0.00114231766202 1.64280936588e-05 9.1398935183e-05 1.1994835404e-05 -1.01443674794e-05 -0.197923928499 0.0147265568376
316.3375 -0.0860086083412 0.00322412885725 -4.89217418362e-05 -2.40465815295e-05 1.71957344719e-05 -6.4405453486e-06 -0.170276269317 0.0403996743262
316.541666667 -0.107431188226 0.04006491974 -1.08309204734e-05 -4.0749389882e-05 2.69576630672e-05 7.48075535739e-06 -0.128482088447 0.0309919267893
316.745833333 -0.107499174774 0.101191721857 -2.55130780715e-05 -9.48865908867e-06 -3.47475207718e-07 1.95580305444e-05 -0.075314283371 0.0614211894572
316.95 -0.0558670535684 0.172199264169 -3.28807254846e-05 3.12418524118e-05 3.84609484172e-06 -5.14399289386e-06 -0.0657001361251 0.0434258542955
