!Created with skrf (http://scikit-rf.org).
# GHz S RI R 50.0 
!freq ReS11 ImS11 ReS21 ImS21 ReS12 ImS12 ReS22 ImS22
290.0 -0.0158461667597 0.200016066432 0.0383435040712 -0.0227061230689 0.00152090506162 -0.00169508508407 0.0291771367192 0.0952696800232
290.204166667 0.0818278566003 0.212819188833 -0.00819605775177 0.0379678010941 -0.00060315860901 0.00166763586458 0.104990936816 -0.129396826029
290.408333333 0.173229679465 0.140539214015 -0.00731627410278 0.00691272318363 -0.00192647357471 0.00209241895936 -0.288021236658 -0.116441629827
290.6125 0.100336655974 0.0178214330226 0.0152639364824 0.013659119606 -0.00103503873106 -0.00130026682746 -0.20287963748 0.247723311186
290.816666667 0.0364643149078 -0.0138975102454 0.0122508555651 -0.000232284903177 0.000428989471402 -0.00266837910749 0.15496455133 0.184923022985
291.020833333 0.0225779786706 0.0194816961884 0.000733370601665 0.00636153202504 0.00103526306339 0.00225495430641 0.0804111436009 -0.0763520076871
291.225 0.0597508437932 0.0447757355869 -0.00677937082946 0.00382481468841 0.00186570605729 -0.00178704690188 -0.159346863627 0.0868620947003
291.429166667 0.125183999538 -0.00137570023071 0.00432960363105 -0.00617012893781 0.000477017572848 -0.000811878067907 0.198222070932 0.301140278578
291.633333333 0.130822986364 -0.0911206156015 -0.00470944028348 0.00630775745958 0.00265070120804 -0.00616296520457 0.380770564079 -0.172502443194
291.8375 0.142757043242 -0.214456006885 0.00201038038358 -0.00065394747071 -0.00229161791503 0.0011523097055 -0.0943208634853 -0.243070840836
292.041666667 0.0973304212093 -0.302319049835 0.00181108689867 0.00112976972014 0.000718529568985 -0.00044869739213 -0.0747615918517 0.185378074646
292.245833333 -0.0997396335006 -0.309599667788 0.000457076937892 0.000911834067665 -0.000368595734471 -0.00137565960176 0.264689832926 -0.0452976934612
292.45 -0.265557974577 -0.230447605252 0.000407640589401 0.00082842836855 0.00065746193286 -0.000147405618918 -0.0698941126466 -0.297610878944
292.654166667 -0.304546922445 -0.0796289145947 -0.000132514629513 -0.000380088284146 -0.000216753818677 2.84351935989e-05 -0.227101504803 0.163295432925
292.858333333 -0.237121537328 0.0514661595225 0.000641279970296 -0.000465253397124 -0.0014694017591 0.000365126586985 0.273690849543 0.231764152646
293.0625 -0.128462716937 0.126384288073 -0.000919699086808 0.00044845341472 -0.000711239874363 -0.00063450896414 0.298087477684 -0.231325164437
293.266666667 -0.0173192173243 0.14248496294 0.000509818084538 0.000286031776341 0.000647504581138 0.000106054991193 -0.0696814581752 -0.239590108395
293.470833333 0.0778142288327 0.114993013442 -0.000906559464056 0.00061199371703 -0.00109119387344 -0.000721887743566 0.023487502709 0.0951499044895
293.675 0.0950997695327 0.0590050444007 0.000409062224207 -0.00273243477568 0.000265980925178 0.00116912368685 0.2372854352 -0.244602873921
293.879166667 0.074508368969 -0.0121748531237 -0.001890661777 0.00417391164228 0.00141323544085 0.00417890958488 -0.220763519406 -0.287882328033
294.083333333 0.0305156074464 -0.0354938134551 -0.00886272266507 -0.00691971741617 0.000683224759996 -0.00371174374595 -0.264087200165 0.0905654504895
294.2875 0.0189161170274 -0.00739995343611 0.00900406669825 -0.0047405124642 0.000380533427233 -0.00768007757142 -0.000709242536686 0.0664852187037
294.491666667 0.045418266207 0.0492796115577 -0.0106295784935 0.00706234062091 0.00440908363089 -0.00321318907663 -0.044220879674 -0.153968974948
294.695833333 0.117561280727 0.0687534958124 0.00275013851933 -0.00911102816463 -0.0160972271115 0.00719517609105 -0.404585003853 -0.186233505607
294.9 0.191845372319 0.0152669139206 0.0324101448059 0.00635350588709 0.00397646706551 -0.00810962170362 -0.594959616661 0.454415887594
295.104166667 0.208353891969 -0.0104520292953 0.0149986986071 0.00796742830426 0.00228126649745 -0.0213708020747 0.534038901329 0.216683074832
295.308333333 0.205498456955 -0.0662767887115 -0.00202223821543 0.0053013432771 -0.0029684798792 -0.00691170012578 -0.269710183144 -0.161182880402
295.5125 0.205728054047 -0.155618935823 0.0178364831954 0.00287744915113 -0.00304461759515 -0.0143808294088 -0.520356893539 0.127395868301
295.716666667 0.178266882896 -0.265431731939 0.0149801149964 0.00500205205753 0.000174848755705 -0.00263952556998 0.0585121363401 0.31598418951
295.920833333 0.106965065002 -0.368913590908 0.000170117273228 -0.000144692807226 -0.00304826372303 0.000377670105081 0.0965831875801 -0.150535076857
296.125 -0.0574845373631 -0.419435143471 0.00520692812279 0.024289989844 0.000153338303789 0.000145452839206 -0.306672364473 -0.0304217636585
296.329166667 -0.282978922129 -0.334129601717 -0.0135500980541 0.0134515827522 0.00210703257471 0.000773853098508 -0.119534395635 0.292826414108
296.533333333 -0.495094388723 -0.0828529894352 -0.00311898021027 0.00382969621569 0.000795383064542 -0.00132777320687 0.193766728044 0.178299248219
296.7375 -0.594326734543 0.0339965969324 0.00161911093164 -0.029163043946 -0.000654672330711 0.000558862055186 0.0491563156247 -0.0817419737577
296.941666667 -0.485002577305 0.0260292347521 0.00468207057565 -0.00542493117973 -0.00066252076067 -0.000269627664238 -0.0705528408289 0.186489924788
297.145833333 -0.374622821808 0.106913782656 -0.00391423376277 -0.000764943019021 2.69533102255e-05 -0.000435923138866 0.231474488974 0.170890808105
297.35 -0.285877764225 0.048862863332 0.00179703440517 0.00309192948043 0.000247059273534 -0.000342643092154 0.233092084527 -0.167684853077
297.554166667 -0.205396458507 -0.0605077296495 0.00753426365554 0.000266639573965 -0.00104031548835 -0.000458209047792 -0.0930782184005 -0.178585186601
297.758333333 -0.174782916903 -0.1918284446 -0.00509509444237 -0.00707878777757 9.61117984843e-05 -0.000188189806067 -0.056699860841 0.0803835019469
297.9625 -0.274215042591 -0.264108926058 -0.00883006956428 -0.00980968773365 3.67984030163e-05 0.000454010325484 0.154246151447 0.0137541973963
298.166666667 -0.4830968678 -0.31528827548 0.0110162105411 -0.00351496227086 -0.000598819577135 -0.000428357656347 0.0616583228111 -0.175516203046
298.370833333 -0.60336369276 -0.245147913694 -0.00198621768504 0.00400247145444 -8.70508883963e-05 -0.00114405585919 -0.153709664941 -0.0845827013254
298.575 -0.55859464407 0.036716978997 0.0110817002133 0.00378647260368 0.00024476161343 -0.000159862305736 -0.029426490888 0.143878400326
298.779166667 -0.303375095129 0.316371798515 0.000793181417976 -0.00157002115157 0.000187699333765 -0.000215790962102 0.255693852901 0.054735250771
298.983333333 -0.0562292039394 0.387691766024 0.000290261552436 -0.00241342606023 -0.000255611346802 -0.000153923916514 0.118839882314 -0.345004856586
299.1875 0.124761290848 0.372206956148 0.00664732651785 -0.00716309202835 -9.95640948531e-05 -3.25251676259e-05 -0.26585033536 -0.138328015804
299.391666667 0.267140835524 0.323305040598 0.000997894676402 -0.000499177258462 -0.000228333752602 -0.000102758305729 0.0466301180422 0.0996863767505
299.595833333 0.359153032303 0.245424747467 0.000450200983323 0.00291318516247 -6.59292491036e-05 0.000163395554409 0.0614795051515 -0.309224188328
299.8 0.330082893372 0.134245663881 4.39080613432e-05 0.000962643360253 -3.56425771315e-05 -0.00030782649992 -0.382572263479 -0.273123264313
300.004166667 0.30636075139 -0.023623181507 0.00150305719581 -0.00165694858879 0.000533453247044 -0.000141070981044 -0.357507169247 0.301900863647
300.208333333 0.261817425489 -0.086224399507 0.00088037410751 0.000258826330537 5.50707845832e-05 0.000183057505637 0.118290409446 0.264622151852
300.4125 0.162394672632 -0.133521020412 0.000481005699839 -0.000443675817223 -0.0011705547804 0.00063386344118 -0.0112098203972 -0.0858760029078
300.616666667 0.0314785838127 -0.136884704232 0.000236557418248 0.000305538444081 0.000114742033475 0.000206252618227 -0.299960970879 0.179640159011
300.820833333 -0.030813716352 -0.0673372149467 0.000453220505733 0.000683790771291 -0.000179827926331 0.000185229553608 0.0681459903717 0.569780945778
301.025 -0.00982194580138 0.00693365326151 -0.000459820876131 -0.000222647882765 0.000240671317442 9.70095279627e-05 0.533147931099 0.187165424228
301.229166667 0.0509683303535 0.0148805519566 -0.000911480979994 -0.000112072069896 0.000731228792574 0.000356013159035 0.183195486665 -0.325853437185
301.433333333 0.0710570067167 -0.0148278353736 -0.000215334846871 0.000580643478315 -0.000230436984566 0.000387233652873 -0.298080444336 0.0614106878638
301.6375 0.0791511908174 -0.0310859400779 0.000410400651162 -9.57799638854e-05 -0.000248585361987 -5.52262572455e-05 0.145235359669 0.4315366745
301.841666667 0.0826438590884 -0.0500474013388 2.97061724268e-05 -0.000230667326832 -0.00028813740937 -4.60665760329e-05 0.432337552309 -0.101095363498
302.045833333 0.064711228013 -0.0863946229219 0.000736154208425 0.000306823261781 0.000140158066642 -0.00068448780803 -0.0842282548547 -0.290541797876
302.25 0.00470278831199 -0.125146210194 0.0009334483766 -4.50341249234e-05 -0.000192032050109 -0.00017418731295 -0.284631431103 0.195642843843
302.454166667 -0.0564848221838 -0.112061962485 0.000400391378207 0.000212728584302 -0.000605448498391 -0.000229931771173 0.256461232901 0.320034086704
302.658333333 -0.106383800507 -0.0694505572319 -0.000291694363113 0.000123477511806 0.00015609995171 0.000422231882112 0.334430724382 -0.155578330159
302.8625 -0.139495924115 -0.0110703101382 0.000880117004272 0.000279326341115 4.35077272414e-05 0.000147866347106 -0.112018704414 -0.270870774984
303.066666667 -0.141536101699 0.030159464106 -0.00010662942077 -2.57767678704e-05 1.36453036248e-05 -9.25093772821e-05 -0.131752490997 0.171254634857
303.270833333 -0.0962148085237 0.0663112327456 2.38311931753e-05 -0.000430274929386 -0.000360993144568 -6.35767864878e-05 0.407406151295 0.122720904648
303.475 -0.0376675911248 0.0920419096947 0.000461885676486 -0.000589592033066 6.87356878188e-05 0.000551763805561 0.338152289391 -0.477669596672
303.679166667 0.00825872831047 0.0654098019004 0.00019315892132 0.000186226345249 -0.000219833280426 -0.000244140173891 -0.384236186743 -0.650992035866
303.883333333 0.0179328750819 0.0265130139887 -0.000178556671017 0.000122502853628 6.68717329972e-05 0.000143521945574 -0.572072982788 0.221561461687
304.0875 0.0101818647236 0.00366152171046 0.000323973566992 -0.000341801176546 2.09162899409e-05 1.46699485413e-05 0.281974047422 0.325838446617
304.291666667 -0.00495697930455 -0.00891408231109 0.000108639294922 -7.3638097092e-05 0.000112946843728 2.97592378047e-05 0.301256000996 -0.452776253223
304.495833333 -0.0256456546485 -0.00282138492912 0.000282763241557 0.000124267564388 -1.20168751891e-05 4.41343399871e-05 -0.385407090187 -0.416068553925
304.7 -0.0430030524731 0.0262065529823 8.73302487889e-05 -3.43728279404e-05 7.44339704397e-05 -3.26896297338e-05 -0.504490435123 0.242517471313
304.904166667 -0.0431187003851 0.0793173313141 3.00855317619e-05 0.000184617412742 -3.17533995258e-05 0.000153017710545 0.173240110278 0.444924175739
305.108333333 -0.00203907769173 0.11349272728 -0.00028554094024 4.40953226644e-05 -4.12826411775e-05 0.000158978364198 0.401081591845 -0.139426141977
305.3125 0.0599950104952 0.125057518482 7.64506410178e-07 -4.98329463881e-05 8.24104574804e-07 -6.20066275587e-05 -0.137394890189 -0.428539931774
305.516666667 0.127630323172 0.0943640321493 0.000117357427371 -8.40214270283e-05 -6.44045867375e-05 -0.000121161654533 -0.365146905184 0.1020719558
305.720833333 0.182701662183 0.027789639309 0.000579329731409 2.53848811553e-05 -1.5676181647e-05 3.15467550536e-05 0.089189350605 0.341159343719
305.925 0.212164998055 -0.0566699504852 0.000420088501414 -0.000162713928148 1.617704811e-06 2.34355502471e-05 0.333194494247 -0.153944730759
306.129166667 0.186283990741 -0.124068751931 2.08646015381e-05 -2.88377286779e-05 2.71403714578e-05 4.16368056904e-05 -0.130772396922 -0.456270128489
306.333333333 0.102914400399 -0.170030549169 8.22916772449e-05 0.000626644934528 3.06167203235e-05 9.82220517471e-05 -0.536024391651 0.0474605076015
306.5375 0.0613860785961 -0.164531156421 -4.28174862463e-05 -0.000520419562235 2.43056219915e-05 5.24053320987e-05 -0.00913009233773 0.449548393488
306.741666667 0.0217250715941 -0.157308503985 4.68603830086e-05 -0.000370237714378 -1.91082617675e-05 2.07129014598e-05 0.28694999218 0.018764924258
306.945833333 -0.0189843382686 -0.123617731035 0.000760875584092 -0.000539924774785 2.41173347604e-05 -3.66149070032e-05 -0.136752694845 -0.173470124602
307.15 -0.0336413607001 -0.0622183941305 -5.40292967344e-05 0.000304665765725 8.71236716193e-06 -3.34054784616e-05 -0.236347109079 0.322262853384
307.354166667 -0.0238396525383 -0.0200118385255 -0.000528061413206 0.000442742020823 -3.45617118001e-05 8.12008056528e-06 0.366122215986 0.472975730896
307.558333333 0.0102070784196 -0.00871385168284 -0.00018410103803 0.000451168394648 -3.2784002542e-05 2.73271598417e-05 0.505424678326 -0.216704055667
307.7625 0.0505617298186 -0.0357417613268 0.000335618125973 0.000298868864775 -1.57294962264e-05 2.06727054319e-05 -0.111074648798 -0.366591989994
307.966666667 0.063512891531 -0.0691770911217 -0.000245746457949 -0.000150421226863 4.02643272537e-05 5.14798799145e-08 -0.205589041114 0.193093091249
308.170833333 0.0250125080347 -0.111105918884 -0.000103096870589 -1.66074933077e-05 1.3443825992e-05 5.46372939425e-05 0.317466169596 0.195447355509
308.375 -0.0235687792301 -0.135027766228 0.000792068662122 -0.000508765457198 -1.4524218841e-06 -3.99383789045e-05 0.333663791418 -0.363590836525
308.579166667 -0.0742453187704 -0.159093782306 1.49895577124e-05 0.000728065439034 -3.5215238313e-05 7.32417975087e-05 -0.273702263832 -0.449250012636
308.783333333 -0.148124158382 -0.181998342276 8.10638084658e-06 -0.000400287215598 -1.10004484668e-05 -1.2966360373e-05 -0.403882980347 0.136751323938
308.9875 -0.210821047425 -0.145305782557 0.000125764039694 -0.000448575185146 -3.10991781589e-05 8.81148571352e-06 0.153199568391 0.383849054575
309.191666667 -0.235768124461 -0.118332572281 -0.000583175104111 0.000631453818642 -5.24317374584e-06 -9.35485059017e-06 0.431719750166 -0.105498164892
309.395833333 -0.251855939627 -0.0516333840787 -0.000440219329903 -0.000267409777734 -3.82602265745e-05 1.35911368488e-05 -0.0134773375466 -0.441277176142
309.6 -0.246474921703 0.0424733646214 0.000375363422791 0.000113979840535 2.57186684394e-06 9.50287903834e-06 -0.337217450142 0.023016538471
309.804166667 -0.189262017608 0.127621099353 2.54303322436e-05 0.000444122531917 -3.89592787542e-05 8.80102816154e-05 0.103229112923 0.258666276932
310.008333333 -0.102736465633 0.168755099177 0.000180641931365 8.82724125404e-05 5.53632962692e-05 1.18126808957e-05 0.333876281977 -0.217546492815
310.2125 -0.0435123927891 0.168962717056 1.22892188301e-05 7.71127597545e-05 -4.28736639151e-05 6.33284798823e-05 -0.183643072844 -0.477706342936
310.416666667 -0.0141956815496 0.129774212837 0.000391951471101 7.4664640124e-05 -9.03908075998e-05 7.02541947248e-05 -0.541275441647 -0.120279349387
310.620833333 0.00673949951306 0.0959936305881 -6.77324569551e-05 0.000202101262403 -2.42370242631e-05 1.44198611451e-05 -0.158801466227 0.316536933184
310.825 0.0194987114519 0.0707497298717 -9.37463264563e-05 -8.62781598698e-05 -5.3230116464e-05 -0.000143717072206 0.183807089925 -0.0322325602174
311.029166667 0.02084518224 0.0605212412775 0.000103200101876 1.49333136505e-05 -0.000123834208352 -4.3556374294e-05 -0.125187411904 -0.228017553687
311.233333333 0.0271512884647 0.0499270819128 -0.000100012257462 5.52437086299e-05 3.64548432117e-05 8.47847550176e-05 -0.361375004053 0.0905077233911
311.4375 0.0224789641798 0.0387048572302 2.81470238406e-05 -6.4643623773e-05 -4.86096687382e-05 -2.29625275097e-05 -0.109316989779 0.398628920317
311.641666667 0.025858335197 0.0479237027466 -6.66110572638e-05 2.22132821364e-05 -0.0001255494426 1.27816083477e-05 0.284817546606 0.20819914341
311.845833333 0.0634919255972 0.0765214115381 -0.000276243576081 2.14310566662e-05 1.33152962007e-05 -3.73459733964e-05 0.0991472527385 -0.212497979403
312.05 0.108343698084 0.066853992641 0.000137144059408 -0.000205854157684 -5.97385405854e-05 1.70874845935e-05 -0.298509955406 -0.0697824805975
312.254166667 0.1421739012 0.0420996136963 -0.000721912132576 -1.48914896272e-05 -3.33583193424e-05 -7.19920717529e-05 -0.183470800519 0.3679228127
312.458333333 0.159712225199 -0.00621047290042 -2.6593434086e-06 1.6301712094e-05 -6.24489694019e-05 -4.43974313384e-05 0.274457395077 0.323348462582
312.6625 0.163206443191 -0.0576352216303 -7.16259382898e-05 0.000373478542315 2.75409784081e-05 -1.44241148519e-05 0.410324662924 -0.155828490853
312.866666667 0.14758014679 -0.116603657603 0.000378905649995 0.000769434322137 0.000156297304784 4.54072942375e-05 -0.192134350538 -0.387788295746
313.070833333 0.11892465502 -0.175717070699 -0.000187140220078 -6.31761940895e-05 1.98390225705e-05 3.38991521858e-05 -0.460965186357 0.261685550213
313.275 0.0694094598293 -0.224182397127 0.000130114145577 -0.000329848582624 4.10344582633e-05 0.000151047075633 0.211959421635 0.602203845978
313.479166667 0.00722950976342 -0.213589087129 -0.000491092621814 0.000529425218701 0.000101887220808 -5.06054493599e-05 0.547562479973 -0.0115104969591
313.683333333 -0.0420820042491 -0.178129121661 -0.00017628641217 0.000373339658836 -4.83532021462e-05 -7.60493203416e-05 0.0391788817942 -0.438017457724
313.8875 -0.0863800793886 -0.156877890229 0.000210858619539 -8.20405148261e-06 -0.000163214077475 -0.000262724410277 -0.430134057999 0.110179394484
314.091666667 -0.134998261929 -0.112768642604 -0.000162984753842 0.000248822587309 -1.76235153049e-05 -0.000353442097548 0.220515996218 0.67200499773
314.295833333 -0.150004521012 -0.0484796650708 4.24708814535e-05 0.000131683365908 -8.46567199915e-05 0.000148821316543 0.931810796261 0.051072023809
314.5 -0.122681677341 0.00650729425251 3.33697316819e-05 6.14599048276e-05 -7.96398308012e-05 -0.000145536832861 0.464579373598 -0.724373877048
314.704166667 -0.0853202193975 0.0319232493639 6.30497233942e-05 -0.000112307512609 1.21008870337e-05 -7.91283819126e-05 -0.329131007195 -0.401071608067
314.908333333 -0.0645540654659 0.0246401745826 4.72066240036e-05 0.000111744637252 -0.000456316862255 0.000470776576549 -0.226582929492 0.323277503252
315.1125 -0.0570538528264 0.021046673879 -7.15407950338e-05 -0.000247603195021 0.000387267529732 -0.000263897789409 0.566310822964 0.122216872871
315.316666667 -0.0487115010619 0.0171887148172 -1.21227767522e-05 0.000182079747901 0.000178838308784 9.71631525317e-05 0.799825310707 -0.748039066792
315.520833333 -0.0407299436629 0.0102796908468 -1.85045573744e-05 1.94653857761e-05 7.42000120226e-05 -1.504867123e-05 -0.300680786371 -1.45838439465
315.725 -0.0374892205 0.00425956584513 -4.23809215135e-05 -0.000105038248876 1.58323255164e-05 5.67158758713e-06 -1.04021012783 0.0329862833023
315.929166667 -0.0539913773537 0.00132461148314 2.68365129159e-05 0.000111249471956 2.99852981698e-05 -5.37072337465e-05 0.0348629876971 0.540367484093
316.133333333 -0.0781270191073 0.00971983373165 -6.83032776578e-05 -8.89567018021e-05 -5.6090655562e-05 -1.52853626787e-05 0.333405256271 -0.29187643528
316.3375 -0.0904366523027 0.036364197731 -4.08940759371e-05 4.76378409076e-05 -2.67500272457e-05 -6.38050960333e-06 -0.286648660898 -0.538208305836
316.541666667 -0.0845661535859 0.0585628077388 -4.89760132041e-05 -2.40696476794e-06 8.35275295685e-06 9.71817553364e-06 -0.681351840496 -0.104022450745
316.745833333 -0.0798843950033 0.0914536565542 0.000140375268529 3.94506350858e-05 -9.52040409175e-07 -1.84457639989e-05 -0.0992341637611 0.609795868397
316.95 -0.051777806133 0.140873551369 5.98625047132e-05 5.44940121472e-05 -1.55068737513e-05 1.96187102119e-05 0.435014754534 0.173517778516
