!Created with skrf (http://scikit-rf.org).
# GHz S RI R 50.0 
!freq ReS11 ImS11 ReS21 ImS21 ReS12 ImS12 ReS22 ImS22
290.0 -0.54818546772 0.309292316437 -0.0272067859769 0.00858949683607 -0.00143819488585 0.00127036601771 -0.241078794003 -0.122829571366
290.204166667 -0.305039852858 0.875041663647 0.0142409838736 -0.00431267824024 -7.51639527152e-05 0.00235662143677 -0.181813299656 0.220278203487
290.408333333 0.628665983677 0.715385496616 -0.00623924657702 0.0232052654028 0.000611876312178 0.000261357898125 0.159987345338 0.245690986514
290.6125 0.494811534882 -0.29751303792 0.0270171482116 0.00515474239364 0.00108674762305 -0.00018523617473 0.314554810524 -0.106288380921
290.816666667 -0.314573854208 -0.353155821562 0.00293179042637 0.000385884719435 -0.000530037039425 -0.000265825976385 -0.0567836649716 -0.226296842098
291.020833333 -0.456242948771 0.354797840118 0.00905280373991 -0.00186412525363 0.00177028111648 -0.00165382190607 -0.367127329111 -0.00291569135152
291.225 0.449503958225 0.393752157688 -0.00452200789005 -0.00368694774806 0.00239770743065 -0.00221321731806 -0.112501569092 0.418585479259
291.429166667 0.410838901997 -0.490448653698 0.000783220515586 -0.00217530108057 0.000485731958179 -0.00105272245128 0.390734761953 0.414877593517
291.633333333 -0.244609028101 -0.406852930784 0.0112427547574 -0.00693508516997 0.000439965049736 -0.0027610771358 0.594518482685 -0.217537790537
291.8375 -0.423140913248 0.225863620639 0.000565962167457 -0.00457802182063 -0.00246255774982 0.00169305142481 0.0707811787724 -0.553093075752
292.041666667 0.4165995121 0.318484663963 -0.00507299369201 0.00204026279971 0.000972549605649 0.00101250654552 -0.432576596737 -0.1854082793
292.245833333 0.476094007492 -0.615174889565 0.00312171829864 9.34202398639e-05 0.000906338333152 -0.000128055544337 -0.163190305233 0.373039573431
292.45 -0.498816341162 -0.782127380371 0.000787898607086 0.00143037561793 -0.00123776623514 -0.000443671189714 0.313829600811 0.204164132476
292.654166667 -0.777132570744 -0.0440176464617 0.000384401268093 -0.000257087667705 -0.000381070974981 -0.000395488925278 0.321686446667 -0.269521057606
292.858333333 -0.352417439222 0.48926448822 0.000156982103363 0.000359695870429 -0.000357623532182 0.000525900803041 -0.212297827005 -0.346565485001
293.0625 0.27549380064 0.22216117382 -0.00113751075696 -0.000284517765976 0.00091404246632 -8.91970848897e-05 -0.342889249325 0.0749654918909
293.266666667 0.052679605782 -0.209503382444 -0.000154350724188 -0.000536967767403 0.000837858475279 0.000755092361942 0.114877253771 0.403162449598
293.470833333 -0.319195061922 0.0788042917848 -0.00118203775492 0.000849284115247 0.000424142141128 0.000203026444069 0.500756025314 -0.0393010377884
293.675 0.0164101570845 0.387808859348 -0.00473039364442 -0.00186724960804 -0.00147729332093 -0.000825857045129 0.195155128837 -0.532422482967
293.879166667 0.433569639921 0.206262156367 0.00523754628375 -0.00754851521924 0.00330265867524 -0.000452931795735 -0.400805592537 -0.293102025986
294.083333333 0.2370133847 -0.511828124523 0.00532562006265 0.00169589708094 0.00193085114006 0.00184902979527 -0.424044281244 0.211714714766
294.2875 -0.477926045656 -0.253248900175 0.000920595484786 -0.0129438601434 0.000928273657337 0.00135311903432 -0.0452640466392 0.340131372213
294.491666667 -0.327945530415 0.553802132607 0.0308727901429 -0.00516145071015 0.00840776506811 0.00377724226564 0.162161275744 0.051381919533
294.695833333 0.498085975647 0.63656026125 -0.011250869371 -0.00318912998773 -0.0204481948167 -0.0120695233345 0.132203638554 -0.313097774982
294.9 0.822288274765 -0.117195278406 0.0128516582772 0.0283748600632 -0.0293846633285 0.0487742200494 -0.539141595364 -0.861750483513
295.104166667 0.425598233938 -0.625651955605 -0.000812352926005 -0.00566795561463 -0.0192981306463 0.0223004389554 -1.20132303238 0.655322432518
295.308333333 -0.321842193604 -0.576285362244 -0.00475216004997 0.0109856007621 0.02095996961 0.0260167587548 0.198914021254 0.734384536743
295.5125 -0.554311513901 0.142825976014 0.0159840863198 -0.00479736598209 -0.00250970199704 -4.52938948001e-05 0.723987281322 0.0583946108818
295.716666667 0.260853737593 0.663228332996 -0.0267315339297 -0.0103184217587 -0.00348257203586 0.00403913576156 0.169346600771 -0.561986982822
295.920833333 1.00114679337 -0.0370041318238 -0.0259424746037 -0.00550907896832 0.00223904359154 0.000430274929386 -0.535764396191 -0.333450078964
296.125 0.793395161629 -1.16605198383 0.00532901566476 -0.0171576030552 0.000567429466173 0.000672575843055 -0.418965399265 0.299895554781
296.329166667 -0.973182797432 -1.27341532707 0.0139459101483 0.0346046872437 -0.000703794765286 -0.00017615420802 -0.0219119805843 0.419205158949
296.533333333 -1.82639300823 0.591514706612 -0.017920281738 0.0120835807174 -0.00030945322942 0.000630448455922 0.335863053799 0.193926766515
296.7375 -0.679591655731 2.51916265488 0.000364083709428 0.0169282313436 0.000562252360396 0.00049440813018 0.190131366253 -0.223675355315
296.941666667 1.6886742115 1.31940305233 -0.0130249904469 -0.0144827105105 -0.000675514806062 0.000401765719289 -0.204114034772 -0.127409979701
297.145833333 1.68551111221 -1.46349275112 0.016875738278 -0.0153899788857 0.000166818659636 -0.00016515875177 -0.105838447809 0.238016083837
297.35 -0.659891307354 -2.70282554626 -0.00079631753033 -0.00571923749521 -0.000278094084933 -8.12357684481e-05 0.230548709631 0.187889739871
297.554166667 -2.31678891182 -1.19288110733 0.0101099442691 -0.00138173019513 0.000816288113128 -0.000119808290037 0.335211247206 -0.102002218366
297.758333333 -2.47986865044 0.813110470772 -0.00427490612492 0.00399420317262 -0.000594738521613 -5.91117568547e-05 0.0958050042391 -0.312209397554
297.9625 0.462763279676 2.46733951569 -0.00152068643365 -0.00496689416468 7.03220712239e-06 0.000228830962442 -0.184656471014 -0.196333765984
298.166666667 2.36555123329 -0.223227441311 -0.00512319477275 0.00219900207594 3.75591080228e-05 0.000173763226485 -0.230289876461 0.132982581854
298.370833333 0.550589621067 -2.25187015533 0.0123834488913 0.0019208722515 -0.000528536096681 8.30687931739e-05 0.103605687618 0.231629818678
298.575 -1.67568659782 -0.965920388699 -0.00104422972072 -0.00717043923214 0.000143709185068 0.000415415968746 0.30064919591 0.0754953846335
298.779166667 -1.14110136032 0.967924535275 -0.00360775389709 0.00557393860072 0.000549620948732 -0.000121721663163 0.354050010443 -0.245168030262
298.983333333 0.433756202459 1.30236661434 0.00359755055979 0.00754033727571 0.000135260532261 0.000208136130823 -0.073195874691 -0.471902400255
299.1875 1.11460494995 -0.0045345495455 -0.00110222504009 -0.00315892859362 0.000106818049971 0.000299562234432 -0.435882180929 -0.0973721295595
299.391666667 0.261617511511 -0.770233631134 -0.000653820345178 -0.00141218060162 2.38548200286e-05 -4.78389265481e-05 -0.0999631509185 0.347941458225
299.595833333 -0.748828887939 -0.234791845083 0.00190834898967 -0.00492773996666 -7.7556418546e-05 0.000233451792155 0.295186460018 -0.0237037539482
299.8 -0.427855581045 0.741822421551 0.00247313198633 -0.00278289918788 0.000149429455632 2.27119599003e-05 0.0627541914582 -0.401212722063
300.004166667 0.577727615833 0.869825482368 0.00430911919102 0.00494309933856 -0.000242631533183 -0.000154687368195 -0.533106029034 -0.248534336686
300.208333333 1.3475972414 0.14592204988 0.000986253959127 0.000677885778714 0.000414721405832 -0.000395335955545 -0.485581815243 0.395164638758
300.4125 0.650815308094 -1.04540872574 -0.00134128914215 -0.00205975910649 -0.000178854403202 0.00036363225081 0.00878283753991 0.664929866791
300.616666667 -0.661792457104 -0.752228915691 0.000631905684713 -0.000234741441091 0.00014320689661 -0.000185791184776 0.537621855736 0.329344540834
300.820833333 -0.832472920418 0.496403217316 -0.000197217756067 5.00094893141e-06 0.000344218540704 -4.51723008155e-06 0.376843184233 -0.273016095161
301.025 0.279705375433 0.982958257198 4.02726345783e-06 -0.000206070631975 0.000873121956829 -0.000361909624189 -0.206741333008 -0.391326189041
301.229166667 0.918852210045 0.0343471430242 -0.000401675380999 -0.000352620962076 -0.000906491884962 -4.17050650867e-05 -0.519179522991 0.239383757114
301.433333333 0.362746924162 -0.701876103878 -0.00030624170904 0.000544496579096 -0.0001318143768 -0.000891368545126 -0.0428793542087 0.664716303349
301.6375 -0.372407913208 -0.596035599709 0.000309418654069 -0.000748177641071 -0.000190971288248 0.000315065000905 0.618249058723 0.447334587574
301.841666667 -0.622344076633 0.110781289637 6.58579665469e-06 0.000451782078017 -1.30754206111e-05 0.000146578546264 0.583691060543 -0.337662935257
302.045833333 0.0359533503652 0.54685652256 -0.000526162039023 -0.000721158809029 -0.000458583148429 0.000150653795572 -0.0440188199282 -0.509682714939
302.25 0.578395366669 0.0317303016782 6.02561158303e-05 0.000158660812303 -0.000193788597244 -0.000755402841605 -0.499635726213 -0.139863058925
302.454166667 0.273550868034 -0.587811946869 -0.000703150522895 -0.000113537811558 -0.000893988239113 0.000844457943458 -0.196875289083 0.524947106838
302.658333333 -0.471586436033 -0.552044391632 8.57425839058e-05 -0.000440419680672 -0.000113485846668 0.000624367559794 0.39856466651 0.330548554659
302.8625 -0.803939461708 0.150660604239 0.000625685148407 0.000830222968943 6.45006934974e-07 -6.6339292971e-05 0.569548010826 -0.215385109186
303.066666667 -0.471155583858 0.877113163471 -0.00121525139548 2.92967761197e-05 -5.85167726967e-05 -0.000164969853358 0.161046266556 -0.660505414009
303.270833333 0.624556362629 0.702155172825 0.000511822465342 -0.000132096203743 -0.000486632285174 0.00033130205702 -0.407342731953 -0.452435910702
303.475 0.793605268002 -0.466347008944 0.00023570045596 0.000300294603221 0.00106571184006 0.000291176576866 -0.554127275944 0.13859423995
303.679166667 -0.226152330637 -0.95057117939 -0.000211162594496 0.000636462355033 1.34391548272e-05 0.000616748002358 0.155559614301 0.665508151054
303.883333333 -0.928668498993 -0.035278107971 -0.000214020983549 -0.000218447254156 -0.000360049045412 0.000285710964818 0.770580649376 0.00489187519997
304.0875 -0.295434445143 0.698468089104 2.63285000983e-05 -0.000105518316559 1.10156634037e-05 -8.11110385257e-06 0.504411637783 -0.878866434097
304.291666667 0.5630620718 0.379884511232 9.37886870815e-05 -2.73802052106e-05 9.56346630119e-05 -5.90198287682e-05 -0.411208182573 -0.944554924965
304.495833333 0.41044357419 -0.43941026926 0.00016661718837 -0.000284957408439 3.30058355758e-05 -0.000115674425615 -0.847056210041 -0.25541383028
304.7 -0.302887529135 -0.512230038643 -1.17008321467e-05 -6.07222318649e-05 4.29300671385e-05 -5.96148856857e-05 -0.68824672699 0.518095314503
304.904166667 -0.773650765419 0.044617023319 -6.92780886311e-05 -2.54862175098e-06 9.1910653282e-05 -0.000187740646652 0.131281509995 0.771776020527
305.108333333 -0.361965239048 0.747402846813 0.000198947804165 -8.81292944541e-05 -2.44887432927e-05 -0.000164088982274 0.633311808109 0.224042117596
305.3125 0.444656193256 0.777809977531 -0.000201597198611 6.50727961329e-05 8.26175019029e-05 2.38285902014e-05 0.484471529722 -0.476842820644
305.516666667 1.01645982265 0.0424465611577 0.000122967539937 -0.000179255381227 9.92814966594e-06 4.37878989032e-05 -0.26000636816 -0.585753619671
305.720833333 0.456621199846 -1.0604954958 -0.000185974451597 -0.000273131561698 -6.15369071966e-06 -1.37886345328e-05 -0.631907522678 -0.119934283197
305.925 -0.877584040165 -0.779064238071 -0.00019294708909 0.000275735132163 -4.33054883615e-05 -9.34103354666e-06 -0.476755768061 0.402164936066
306.129166667 -0.997029006481 0.563690960407 -0.000375911418814 0.000268757896265 -6.42342420178e-05 -2.64155005425e-05 0.132088795304 0.559784471989
306.333333333 0.380800783634 1.01376342773 -0.000294718134683 0.000160467447131 -2.71051339951e-05 6.56703787172e-06 0.467329353094 0.0266647227108
306.5375 1.02568483353 0.269522160292 -0.000818697328214 3.13018026645e-05 -7.90413832874e-05 1.42896997204e-05 0.0705278515816 -0.505802750587
306.741666667 1.00846302509 -0.711183726788 0.000288237351924 0.000162248703418 5.50731192561e-06 -1.59044520842e-05 -0.540197730064 -0.158913567662
306.945833333 -0.0895748734474 -1.23570811749 -0.000473991472973 -0.000191390354303 4.80758853882e-06 1.80022452696e-05 -0.385769784451 0.416980803013
307.15 -0.767583668232 -0.378266185522 0.00010216794908 0.00030725391116 1.49485294969e-05 -6.80334596836e-06 0.176088109612 0.715344905853
307.354166667 -0.539437770844 0.491320312023 0.00070310960291 0.000118923948321 6.65629995638e-05 1.30604894366e-06 0.834597706795 0.267230212688
307.558333333 0.253193318844 0.741133093834 0.000226239775657 -9.89343607216e-06 -6.94334903528e-06 7.71125269239e-06 0.531205773354 -0.515625417233
307.7625 0.90196031332 0.069081902504 5.44453041584e-06 0.000200605747523 1.90603475403e-06 4.39560426457e-05 -0.20332852006 -0.588320732117
307.966666667 0.638254344463 -0.590067744255 0.000256295170402 -2.01596540137e-05 4.38803112957e-07 -1.09601733129e-05 -0.564852714539 0.0433541275561
308.170833333 -0.334988772869 -0.857344985008 -8.25432562124e-06 0.000139379757456 3.0610452086e-05 -1.67461371348e-06 -0.0616917535663 0.512483775616
308.375 -0.857347786427 -0.0119924014434 -0.000301880005281 -0.000747123442125 -1.90610699065e-05 8.21116700536e-05 0.492210328579 0.28434753418
308.579166667 -0.381244778633 0.711527347565 0.000544842507225 0.000232688194956 -1.00310908238e-05 -1.7471746105e-05 0.641757488251 -0.302133738995
308.783333333 0.63258177042 0.613220155239 0.0003267537395 2.21262434934e-05 3.43642605003e-05 -1.23546196846e-05 0.144059434533 -0.664702773094
308.9875 0.741653084755 -0.46987837553 0.000878179620486 -0.0004085128312 7.90835485986e-07 -3.93106074625e-06 -0.426747709513 -0.481495589018
309.191666667 0.138734564185 -0.965310096741 0.000579046958592 5.79854749958e-05 5.64193499031e-07 4.74115267934e-06 -0.61506408453 0.18409948051
309.395833333 -0.765349447727 -0.818287909031 -0.000444833189249 0.000257500767475 5.66516007439e-07 6.92497133059e-06 0.0327529460192 0.567519783974
309.6 -1.13383734226 0.233584612608 -0.000385233201087 -6.37807534076e-05 -3.55944871444e-06 -4.41666015831e-05 0.534551739693 0.188135236502
309.804166667 -0.357310295105 0.952278912067 -0.000340468832292 0.000232857390074 -5.64017173019e-05 2.6555138902e-05 0.507413864136 -0.447129011154
310.008333333 0.601726412773 0.615409255028 1.13180167318e-05 -1.63742861332e-05 9.8162003269e-05 3.96063151129e-05 -0.17229346931 -0.660624146461
310.2125 0.623664498329 -0.304693639278 -0.000123702237033 3.13821743703e-07 -6.6862849053e-05 2.51746860158e-05 -0.624546051025 -0.236547276378
310.416666667 -0.023536613211 -0.549411535263 0.000209631616599 -0.000118910960737 -1.76748847025e-06 -8.41903092805e-05 -0.641078412533 0.309836298227
310.620833333 -0.52448707819 -0.202563211322 0.000255924183875 3.52304887201e-05 1.88753274415e-05 8.5939282144e-06 -0.00650830939412 0.527300059795
310.825 -0.393380284309 0.412380248308 -1.16096152851e-05 5.95485944359e-05 -1.9819883164e-05 7.48049069443e-06 0.353411048651 0.0594981461763
311.029166667 0.0920450612903 0.566812157631 2.02779701794e-05 -1.11650224426e-05 -9.08687798074e-05 4.53586872027e-05 0.110804624856 -0.308289796114
311.233333333 0.569667875767 0.226482525468 0.000208889396163 -4.51636406069e-05 -7.566712884e-05 4.59015609522e-06 -0.328277438879 -0.287746459246
311.4375 0.331282734871 -0.417394280434 1.28499887069e-05 -1.75812401721e-05 -6.00358498559e-06 3.9463309804e-05 -0.515868604183 0.124082051218
311.641666667 -0.318692326546 -0.361045211554 -2.43744889303e-05 -8.67447670316e-05 4.27404338552e-05 7.88587858551e-05 -0.292870879173 0.50817990303
311.845833333 -0.605213463306 0.298021525145 -0.000410214153817 -0.000146850172314 -3.1251765904e-05 -7.96272870502e-05 0.237551569939 0.540485680103
312.05 0.0687002763152 0.763132631779 3.38794307027e-05 -9.92339992081e-05 5.11011348863e-05 7.19102099538e-05 0.540477335453 0.101477481425
312.254166667 0.681118786335 0.405223786831 -2.78023117062e-06 0.000251638703048 -4.37159105786e-05 -2.57414249063e-05 0.32832595706 -0.358190864325
312.458333333 0.734685480595 -0.271163523197 0.00103339401539 0.000818769156467 1.59907358466e-06 -1.57754875545e-05 -0.220400333405 -0.46751922369
312.6625 0.214157015085 -0.760869979858 -0.000624424486887 -0.000211107879295 6.10464439887e-06 0.000152231441461 -0.626240730286 0.0149562163278
312.866666667 -0.497427225113 -0.478979200125 -4.61262534373e-05 0.000420617754571 -3.87793761547e-06 -4.38345887233e-05 -0.435421258211 0.609474956989
313.070833333 -0.562961637974 0.257516354322 0.000162191514391 9.13728508749e-05 -5.24566239619e-05 1.22911733342e-05 0.286412119865 0.844078421593
313.275 0.155180171132 0.685043096542 0.000177386202267 -1.08870754048e-05 9.25835047383e-05 5.78749022679e-05 0.870009064674 0.160592481494
313.479166667 0.737475216389 0.100461870432 -0.000205135627766 8.22345173219e-05 0.000230672769248 0.000176591143827 0.517470300198 -0.510144710541
313.683333333 0.512775599957 -0.522796869278 -0.000138189381687 -0.000172025291249 -0.000399885990191 -0.00041546614375 -0.222513511777 -0.677777886391
313.8875 -0.0448168776929 -0.849018394947 5.88453549426e-05 -0.000281768996501 0.000113202841021 -0.000192315899767 -0.772148966789 0.018185434863
314.091666667 -0.80940747261 -0.484419792891 -4.42555865448e-05 0.000228296281421 -0.00029854758759 0.000712663168088 -0.243269667029 0.903937280178
314.295833333 -0.760296225548 0.375095844269 -0.000193844782189 -8.48626368679e-05 2.82086075458e-05 -0.000165201970958 0.710068523884 0.819715976715
314.5 -0.0583460219204 0.723400056362 0.000121995915833 0.000194219930563 -3.065096098e-05 -0.00029633907252 1.25328707695 0.0672144219279
314.704166667 0.621284008026 0.258369594812 -0.000297253835015 -1.24487030462e-06 -9.83331574389e-06 -0.000378021330107 0.645471572876 -0.86128783226
314.908333333 0.470309525728 -0.413140445948 0.000116805967991 1.82766161743e-05 -0.000107481850137 -0.000126647850266 -0.183536067605 -0.98927116394
315.1125 -0.0903894305229 -0.681586503983 0.000156346097356 3.53989671567e-05 -0.000509864359628 -0.000125625520013 -0.914230287075 -0.380792289972
315.316666667 -0.691254913807 -0.349724948406 2.15082527575e-05 -8.00210109446e-05 -4.30627515016e-05 1.74286033143e-05 -0.980151236057 0.600334107876
315.520833333 -0.614361941814 0.382138997316 -6.84203696437e-05 7.65975419199e-05 -6.79813529132e-05 0.000167067322764 0.143953815103 1.16265439987
315.725 -0.0106243090704 0.542637586594 1.15576149256e-05 0.000139847470564 3.20457838825e-05 -0.000109304965008 1.14698052406 0.0618341565132
315.929166667 0.465927541256 0.3558562994 1.22082037706e-05 2.29094130191e-05 2.1282598027e-05 2.62662961177e-05 0.359546631575 -1.01112556458
316.133333333 0.593129992485 -0.320389032364 -6.02542131674e-05 5.29180142621e-05 -3.33527750627e-05 4.49055623903e-05 -0.722408950329 -0.62509393692
316.3375 -0.0797712653875 -0.679395079613 6.12239000475e-06 -4.34058893006e-05 -2.31970388995e-05 -1.29266081785e-05 -1.03070306778 -0.039631024003
316.541666667 -0.600459754467 -0.318398118019 -8.1278871221e-05 3.09601018671e-05 -1.50113746713e-05 -6.44187957732e-06 -0.809529781342 0.588573634624
316.745833333 -0.728562951088 0.343268305063 -9.47538428591e-05 2.70379655376e-06 -1.45787435031e-05 3.29878093908e-06 0.324091464281 0.793056309223
316.95 -0.106109939516 0.894065141678 -5.35485996807e-05 1.32826135086e-05 1.26873428599e-05 -3.10891155095e-05 0.719282388687 0.156221792102
317.154166667 0.651756703854 0.502297580242 -3.85310049751e-05 3.78083768737e-06 2.48146006925e-05 1.21886232591e-05 0.447178214788 -0.590317368507
317.358333333 0.774807274342 -0.233555823565 6.16248216829e-05 -4.25196376455e-05 4.04013326261e-06 2.01695925739e-07 -0.342652946711 -0.716224730015
317.5625 0.10792183131 -0.666255474091 8.27748299344e-05 -2.19086196012e-05 -5.84874032938e-06 1.01443674794e-05 -0.798080980778 -0.0615527927876
