!Created with skrf (http://scikit-rf.org).
# GHz S RI R 50.0 
!freq ReS11 ImS11 ReS21 ImS21 ReS12 ImS12 ReS22 ImS22
290.0 0.100698426366 0.10966604203 0.00940461363643 0.00585359102115 -0.000805336982012 -4.83511284983e-05 0.0237640123814 -0.0816362500191
290.204166667 0.0615542121232 0.0604624524713 -0.0117554608732 -0.0225090421736 -0.00221348949708 -0.000429758481914 -0.0875737443566 -0.0771476924419
290.408333333 -0.0308376140893 0.091302677989 -0.00243348116055 0.0164814814925 -0.0012403940782 -0.00311682024039 -0.136258676648 0.0469614379108
290.6125 0.04960161075 0.129606619477 -0.00654713390395 0.0130028510466 -0.00133654812817 -0.000375930219889 -0.0782941281796 0.14080491662
290.816666667 0.157552972436 0.0290582310408 0.0137840937823 0.00580479996279 0.00068374624243 -0.0014566492755 0.0220004003495 0.132393479347
291.020833333 0.100276015699 -0.0779316574335 0.00407075276598 0.00477984873578 -0.00252396031283 -0.000271375989541 0.0732526928186 0.0691648945212
291.225 -0.0328373946249 -0.0134608782828 -0.00272284145467 -0.00284893251956 0.00634930888191 0.008594783023 0.057753328234 0.0440916754305
291.429166667 0.0978608131409 0.101235084236 0.00604426860809 -0.00188378267922 0.000346328801243 0.000635286676697 0.0744072273374 0.0693108439445
291.633333333 0.283916711807 -0.0846577361226 -0.000809700170066 0.0111554376781 0.000964825740084 0.00237288069911 0.131534293294 0.0684069618583
291.8375 0.224419221282 -0.313316494226 0.00423296866938 0.00269200652838 0.000588631432038 -0.00132455315907 0.178830325603 -0.021108629182
292.041666667 -0.00586490752175 -0.40572103858 0.000606989779044 -0.00530089903623 0.000339446298312 0.00137894204818 0.104858703911 -0.157707303762
292.245833333 -0.191964447498 -0.220247909427 0.00130367767997 4.3884763727e-05 0.000584114342928 -0.000310616189381 -0.0643483698368 -0.134989649057
292.45 -0.181615531445 -0.129988566041 -0.00130612915382 0.000274292862741 0.000759446411394 0.000840470020194 -0.093878723681 0.0142948683351
292.654166667 -0.204576537013 -0.125190347433 0.000216074797208 -0.000343681516824 -8.69024370331e-05 -0.000275723199593 0.0239259358495 0.0917665734887
292.858333333 -0.255063652992 -0.0392326153815 -6.83731268509e-05 -0.00130718050059 -0.000263236142928 -0.000865819340106 0.157717138529 0.0139597309753
293.0625 -0.212584614754 0.134536206722 0.000348369590938 0.000545980234165 -4.27290942753e-05 0.00151963974349 0.14820022881 -0.100173994899
293.266666667 -0.00934412050992 0.221443548799 5.32708945684e-05 -0.0017199893482 0.00103182531893 0.000304583692923 0.0870708301663 -0.139124721289
293.470833333 0.148009344935 0.0958238691092 0.0015559141757 0.000508723489475 -0.000855581602082 0.000617003417574 0.0369753725827 -0.123189046979
293.675 0.0899903997779 -0.0242226459086 0.00441518193111 -0.000111268709588 0.00104886235204 -0.00100042019039 0.0222060400993 -0.143437087536
293.879166667 -0.00615027360618 -0.0285465791821 -0.00367833650671 0.00429596751928 0.000444222212536 0.000179813170689 -0.0667752623558 -0.161467134953
294.083333333 0.0129266660661 0.0650366842747 0.00768594862893 -0.00556539651006 0.000232377031352 -0.00369628076442 -0.201083928347 -0.105889365077
294.2875 0.112338803709 0.0268790926784 0.0133337704465 -7.58143287385e-05 -0.00152766040992 -0.0045427121222 -0.257685214281 -0.0745078995824
294.491666667 0.0746318176389 -0.0518139638007 -0.000495014013723 -0.0166278295219 0.000908551621251 -0.0069909337908 -0.181666478515 0.0318422913551
294.695833333 0.00766580319032 -0.0256617832929 0.0321022421122 0.000959707074799 0.00565683702007 0.000590735697187 -0.189535692334 0.0877230837941
294.9 0.0618011578918 0.0873855277896 0.0034135740716 0.01668356359 0.00339759420604 0.0215872805566 -0.121847167611 0.0345154441893
295.104166667 0.182445213199 0.103281378746 0.0141948163509 -0.00796266365796 -0.0170456226915 0.0481465682387 -0.0234414096922 -0.0130738075823
295.308333333 0.324512183666 -0.00345106096938 -0.00400190567598 -0.00520952465013 0.00415075337514 0.00391911482438 -0.136717796326 0.0478544719517
295.5125 0.32209482789 -0.257016301155 -0.00464636739343 -0.00702159153298 0.0164199266583 0.000485780939925 -0.180757090449 0.0656745359302
295.716666667 0.130690217018 -0.448753774166 -0.0122318016365 0.0021646709647 -8.04284863989e-05 -0.0047043194063 -0.101016171277 0.0989155545831
295.920833333 -0.117334827781 -0.399138301611 -0.0121831642464 -0.0245920028538 -0.00156510632951 -8.79011204233e-05 -0.0618477575481 0.0431267172098
296.125 -0.158349961042 -0.21887409687 0.0260046757758 -0.0264798086137 -0.000109562293801 0.000678002776112 -0.0903108417988 0.0324020683765
296.329166667 -0.12309025228 -0.194287344813 0.0063691646792 -0.020716143772 -0.000463860546006 -0.000668671564199 -0.0991497412324 0.0926486104727
296.533333333 -0.250644773245 -0.287108540535 -0.0172294992954 0.00952099729329 -0.00198004511185 -0.000178783768206 -0.03506391868 0.176719143987
296.7375 -0.659632027149 -0.427230268717 0.0223385673016 0.0248578265309 0.000157015922014 0.00122715963516 0.126899912953 0.185849547386
296.941666667 -0.931313991547 -0.123657919466 0.00227612629533 0.0312219895422 0.000265165639576 -9.74816721282e-05 0.213277727365 0.0643738731742
297.145833333 -0.705452799797 0.474759787321 0.0155947711319 -0.0111655350775 -8.22369620437e-05 -0.000414843729232 0.142335981131 -0.0391015857458
297.35 -0.125658720732 0.554858088493 0.00680283689871 0.00863888673484 -0.000432032276876 0.000305576715618 0.0523416958749 -0.0650784447789
297.554166667 0.257533252239 0.121769286692 -3.98851261707e-05 -0.00197092164308 -0.000345202890458 -7.30339670554e-05 0.0290543120354 -0.0281317941844
297.758333333 0.259316384792 -0.465365320444 -0.00440209265798 0.00370514881797 -0.000330118491547 -0.000151352622197 0.0522901192307 -0.0184547528625
297.9625 -0.451100707054 -0.759022176266 0.00915686506778 0.00382306496613 0.000556498125661 0.0005222967593 0.053635366261 -0.0537486374378
298.166666667 -1.06402754784 -0.275951325893 -0.0111616682261 0.0061362166889 -0.000179289432708 0.000234168270254 0.0160757042468 -0.0799583792686
298.370833333 -0.783111393452 0.178807422519 -0.00481792120263 0.00454822881147 0.000121680372104 -0.000373686547391 -0.0250944886357 -0.0585104413331
298.575 -0.316749751568 0.242093339562 0.00571096502244 0.00141362904105 0.000362999999197 -0.000491158105433 -0.0155155556276 -0.0114272218198
298.779166667 -0.155871927738 0.147147998214 -0.00149048294406 0.00219605281018 8.80842853803e-05 -0.000238153108512 0.0479132607579 0.0173255838454
298.983333333 -0.184236213565 0.2351334095 -0.00114196666982 -0.00596284912899 -0.00011981093121 0.000310062372591 0.140201717615 -0.059571493417
299.1875 -0.0634039714932 0.461253046989 -0.00447247037664 0.00739485863596 0.00018986518262 8.98303551367e-05 0.0636560618877 -0.242420732975
299.391666667 0.300653934479 0.542127668858 -0.00281279324554 -0.000824880204163 6.10624992987e-05 1.03897527879e-05 -0.147436186671 -0.26278334856
299.595833333 0.571521699429 0.317037791014 0.00149934925139 0.0017188595375 4.5486682211e-05 -0.000172392305103 -0.253125786781 -0.1080609411
299.8 0.483210086823 0.0138754667714 0.000901395629626 -0.001269784756 0.000208349752938 -0.000208535449929 -0.19966468215 0.0183836054057
300.004166667 0.234206676483 -0.202924579382 0.00182049057912 -0.00112403696403 -0.000245215924224 -7.72073690314e-06 -0.133668377995 0.0729029029608
300.208333333 0.0597131997347 -0.117099247873 -0.000369441346265 0.000208795288927 -7.94091101852e-05 0.000334903917974 -0.121198169887 0.0883008092642
300.4125 0.056841943413 0.0329797081649 0.00114476657473 0.00110969238449 0.000294297613436 0.000222423812374 -0.133114472032 0.16563847661
300.616666667 0.169519543648 -0.00885156169534 -0.000893156684469 -0.000305943132844 0.000843234942295 -0.000296549755149 -0.0703749582171 0.273100346327
300.820833333 0.135146707296 -0.168439745903 0.000866519694682 0.000500874361023 0.000743294076528 -5.15289029863e-05 0.104739539325 0.31003010273
301.025 -0.0534897521138 -0.211400210857 -0.000549235148355 -1.63362116723e-07 -6.3873565523e-05 0.000230466714129 0.257268041372 0.202206090093
301.229166667 -0.134469226003 0.00863510463387 0.000572061282583 -0.000949145993218 -0.000597172474954 0.000365763960872 0.244668334723 0.0110015915707
301.433333333 0.00657960260287 0.128750488162 -0.00164272042457 0.00106789905112 -0.000608734029811 -0.000591778662056 0.0870851352811 -0.0757034644485
301.6375 0.173632606864 0.0982145443559 0.00174914940726 -0.00160166760907 -0.000222614267841 -0.00023810408311 -0.0417695678771 0.0149606931955
301.841666667 0.232487007976 -0.0868432968855 -0.0009681477095 0.000927324756049 -0.000266411458142 -0.00010959753854 0.0111293504015 0.135072305799
302.045833333 0.0780483186245 -0.218307480216 0.000202709881705 -0.00175149657298 0.000186523553566 -0.000371226429706 0.127227753401 0.112550139427
302.25 -0.119765006006 -0.163773208857 -0.00127566757146 0.000782686809544 0.000918142846785 0.000898937869351 0.149382725358 0.0251646339893
302.454166667 -0.125202581286 -0.011454410851 0.000522155489307 6.52881499263e-05 0.000820625340566 9.6068775747e-05 0.0864593088627 -0.0416611842811
302.658333333 -0.0367211028934 0.0300264619291 0.000648904882837 0.000545466085896 1.07858577394e-05 -0.000205106320209 0.0249526295811 -0.0114153251052
302.8625 0.00607342692092 -0.0427296161652 8.76271151355e-05 -0.000269941898296 -0.0003064602206 0.000310812145472 0.0773635208607 0.0354801304638
303.066666667 -0.0785133689642 -0.138868123293 -0.00109788693953 -4.26426595368e-05 0.000267007824732 0.000749802624341 0.189093887806 -0.00761789642274
303.270833333 -0.219346448779 -0.0694521069527 0.00083029223606 -0.000309941824526 0.000536871084478 0.000378222786821 0.213887482882 -0.173928305507
303.475 -0.229784950614 0.185984149575 -0.000628007052001 0.000147443352034 0.000988522311673 -0.000390026340028 0.0927377045155 -0.305653959513
303.679166667 0.0449390783906 0.279091835022 0.000415466260165 0.000391068460885 -0.000528465607204 -0.000171697960468 -0.146118119359 -0.355442076921
303.883333333 0.204735696316 0.0626256912947 -0.000905362947378 -0.00105125934351 -0.000123821548186 0.000449741084594 -0.294231683016 -0.146366328001
304.0875 0.0940554961562 -0.139712393284 0.000607429246884 0.00173572520725 0.00012928583601 0.000322630367009 -0.200751855969 0.0566705130041
304.291666667 -0.121343523264 -0.0979409962893 0.000318068312481 -0.000942932500038 0.000226597083383 -0.00010938399646 -0.014405304566 0.048411551863
304.495833333 -0.122104801238 0.0738222375512 -0.000971160538029 0.00019473755674 -5.98045808147e-05 -0.000274244230241 0.0356112606823 -0.0687142312527
304.7 -0.00264531676657 0.148830294609 0.00131962238811 7.2991802881e-05 -0.000141748547321 0.000125111226225 -0.0444634519517 -0.130748137832
304.904166667 0.110111102462 0.101721361279 -0.000690144079272 -0.000461914489279 -7.28931809135e-06 0.000254593440332 -0.133296832442 -0.0862236693501
305.108333333 0.091081790626 -0.00868980493397 0.000531550089363 0.00114913529251 0.000308324728394 9.65849685599e-05 -0.136756077409 0.0324954912066
305.3125 -0.0112568605691 -0.0272941589355 -0.000261894892901 -0.00128268136177 0.00010290141654 2.45348510362e-05 -0.0197716578841 0.1011088714
305.516666667 -0.0567485876381 0.100598886609 5.43265850865e-05 0.000920922728255 -8.16296051198e-07 -0.000189991013031 0.0891079083085 0.0176560878754
305.720833333 0.11132670939 0.230436384678 0.000674239825457 -0.00192629918456 -0.000160518306075 -8.05573654361e-05 0.0674539133906 -0.123791575432
305.925 0.404846608639 0.116553135216 -0.00113846256863 0.00122394855134 -6.709201989e-05 2.20342608372e-05 -0.064573764801 -0.179119929671
306.129166667 0.431417912245 -0.22048163414 0.00266259093769 -0.00176768365782 -9.98113318929e-05 0.000113945803605 -0.208003565669 -0.117272809148
306.333333333 0.108585461974 -0.414330631495 -0.0026700058952 0.00187892233953 8.25716997497e-05 0.000114278380352 -0.229313805699 0.0715227648616
306.5375 -0.133092492819 -0.303098410368 0.00350994407199 0.000546532450244 7.26742146071e-05 -3.98869087803e-05 -0.0750982090831 0.195143148303
306.741666667 -0.19856198132 -0.0622503682971 -0.00300181424245 -0.00325836753473 -7.41531475796e-05 -9.52791015152e-05 0.0528230033815 0.134443715215
306.945833333 -0.0447660572827 0.0920288562775 0.00149259145837 0.00332204275765 -9.50296380324e-05 -1.6121119188e-05 0.0551653951406 0.0482239462435
307.15 0.106211654842 0.0346008762717 0.00231434381567 -0.00239728926681 0.00010390659736 7.97411485109e-05 0.00830237753689 0.0550604239106
307.354166667 0.0972057282925 -0.105957403779 -0.00431173108518 0.000697417766787 -4.58510885437e-06 -5.98925325903e-05 0.0306614469737 0.140984416008
307.558333333 0.00186202523764 -0.162493035197 0.00339192035608 0.00245141168125 -4.20481774199e-05 -0.000122084937175 0.158830672503 0.14695173502
307.7625 -0.127640336752 -0.106651745737 -0.00096585880965 -0.00373974395916 -3.78875702154e-05 0.000102995771158 0.25051254034 -0.00112629320938
307.966666667 -0.0829873010516 0.0295168571174 -0.00136387196835 0.00321612879634 6.11220675637e-05 0.00018863666628 0.192046225071 -0.167782723904
308.170833333 0.0770890340209 0.0459383651614 0.00278165517375 -0.0013280325802 7.97413231339e-05 -3.79694065487e-05 0.0156208919361 -0.226179763675
308.375 0.151075318456 -0.127800822258 -0.0017264863709 0.00107502890751 5.39350003237e-05 -2.68956719083e-05 -0.118973866105 -0.105282738805
308.579166667 0.00860871747136 -0.327493101358 0.00211923872121 0.00022339168936 -0.000172573025338 2.64211812464e-05 -0.0862021967769 0.0347773879766
308.783333333 -0.260977566242 -0.353511810303 -0.00156590947881 -0.00113569956739 -0.000101846155303 0.000129284147988 0.0390219986439 0.0790834203362
308.9875 -0.408526301384 -0.13780221343 0.000934671843424 0.00164862140082 8.08836703072e-05 0.000120220043755 0.133958980441 0.00291274115443
309.191666667 -0.35140055418 0.0354077666998 0.0010756192496 -0.00173077033833 0.000104658785858 -3.15610632242e-05 0.117184691131 -0.111579790711
309.395833333 -0.184747204185 0.116599336267 -0.00123516307212 0.000321197672747 -1.97465469682e-05 -0.000127046558191 0.00272395717911 -0.149372220039
309.6 -0.0682943835855 0.0530870035291 0.00144684209954 0.000693102192599 -0.000211543490877 -3.66485037375e-05 -0.066856957972 -0.071354791522
309.804166667 -0.11903822422 -0.0242781415582 -0.00114620150998 -0.000965539598837 -7.24648707546e-05 0.000186715158634 -0.0209188833833 -0.00415529171005
310.008333333 -0.208347931504 0.0583857893944 0.000761292933021 0.000885363668203 0.000370596797438 6.92167741363e-05 0.0516475476325 -0.0431752279401
310.2125 -0.191207587719 0.206208258867 -0.000205696807825 -0.000936054333579 0.000170309649548 -0.000245670147706 0.0306927114725 -0.16148082912
310.416666667 -0.0624736212194 0.259925663471 -0.000447872298537 0.000882377033122 -0.00020846442203 -0.000502374896314 -0.0848415642977 -0.251912653446
310.620833333 0.0894508287311 0.18813470006 0.00062232936034 -0.000771229271777 -0.000424965110142 0.000129504376673 -0.221009537578 -0.179841205478
310.825 0.124786548316 0.0360353030264 -0.000656932767015 -3.7165125832e-05 0.000109858054202 0.000455957400845 -0.244013205171 0.0219655726105
311.029166667 0.0439225696027 -0.050550326705 0.000625291024335 0.000271888129646 0.00048706663074 -0.00010856345034 -0.109375417233 0.113966979086
311.233333333 -0.0755362510681 -0.0140133565292 -0.000332254363457 -0.0003837813274 6.661376392e-05 -0.000485223339638 -0.0237468667328 0.112197816372
311.4375 -0.0592382512987 0.106872111559 0.000202715134947 0.000487364712171 -0.000312116724672 -0.000213516686927 0.00882378872484 0.0599240995944
311.641666667 0.0624787770212 0.148668825626 -0.000217538821744 -0.000862123270053 -0.000239994144067 0.00038556632353 -0.0355025790632 0.0176708810031
311.845833333 0.204271122813 0.0796502307057 0.000159767907462 0.000941102742217 0.000200392256374 0.000291024975013 -0.0838236957788 0.0549462474883
312.05 0.168001204729 -0.0582396909595 0.000831200915854 -0.000347753288224 0.000423888996011 4.97657420055e-05 -0.0760121867061 0.142186060548
312.254166667 0.0649657100439 -0.0729085952044 -0.000263519381406 0.00123501732014 7.58912792662e-05 -0.000306644709781 0.0169142801315 0.181933388114
312.458333333 0.0245059989393 0.0101940743625 0.00158093089703 -0.00169425818603 -0.000101084551716 -0.000164583121659 0.111667431891 0.133590266109
312.6625 0.110655583441 0.0694465786219 -0.00138551369309 -9.48852539295e-05 -0.000182734976988 0.000108506646939 0.152585372329 0.0323971621692
312.866666667 0.239397779107 -0.00467669824138 0.00139796163421 0.000835070910398 4.75803281006e-05 0.000289932911983 0.0684996023774 -0.072703063488
313.070833333 0.276874870062 -0.205997332931 -0.000235999759752 -0.000865852169227 0.000236635198235 6.92409548719e-06 -0.084620654583 -0.0310840848833
313.275 0.126037955284 -0.39059689641 -0.000372915354092 0.00056534842588 0.000211214355659 -0.000215693828068 -0.110740207136 0.142655521631
313.479166667 -0.0944716930389 -0.340585649014 0.000704590755049 0.000460312119685 -0.000155309797265 0.000149280793266 0.0328139476478 0.254063844681
313.683333333 -0.18643014133 -0.160861089826 -0.000361840153346 -3.48547430917e-08 1.26103668663e-05 0.000238457199885 0.235037341714 0.20356798172
313.8875 -0.148292824626 -0.0208739861846 1.66704739968e-05 2.60121141764e-05 -0.000193403509911 0.000214353218325 0.310465186834 0.0377632640302
314.091666667 -0.0387973375618 0.00990219507366 6.29220667179e-05 -0.000173413325683 0.000305843714159 0.00010868631216 0.251330405474 -0.161054700613
314.295833333 0.00629144813865 -0.077928237617 -0.000125383972772 -0.000123152029119 0.000297489576042 -0.000547914823983 0.0778286978602 -0.162336677313
314.5 -0.0816688910127 -0.138546064496 0.000281015905784 0.00012278885697 -0.000499683141243 0.00012753502233 0.0488289855421 -0.0277938060462
314.704166667 -0.192311152816 -0.0637741014361 -7.76430351834e-06 -0.000226611329708 -0.000484835851239 0.000737931812182 0.142151176929 0.0262699536979
314.908333333 -0.205251187086 0.052616622299 -0.000280769017991 0.000280730280792 0.000234208535403 0.000259529799223 0.268881112337 -0.0878785103559
315.1125 -0.113268464804 0.166503101587 0.000323756103171 0.000204612471862 0.000706149730831 0.000156483903993 0.224902689457 -0.323779523373
315.316666667 0.0464626885951 0.134950712323 -0.000401015917305 -0.000563871290069 -0.000326600507833 -0.000494179490488 0.150372073054 -0.585491359234
315.520833333 0.0939319655299 -0.00673446804285 -0.000263516471023 0.000634311873 -0.000558941508643 0.000367191241821 -0.190204039216 -0.684132456779
315.725 0.00632998393849 -0.101583063602 0.000963274389505 -4.40351213911e-05 0.000226505086175 0.000317431258736 -0.455769509077 -0.22379784286
315.929166667 -0.124202929437 -0.104759797454 -0.000777847482823 -0.00101616524626 9.57453958108e-05 -0.000371581467334 -0.245428606868 0.0885649770498
316.133333333 -0.22092486918 0.0076332599856 -0.000602276297286 0.00104980636388 -0.000269567157375 -1.89108577615e-05 -0.0223622471094 0.0870070382953
316.3375 -0.165731161833 0.16275011003 0.00118168094195 -9.18980003917e-05 1.05288363557e-05 0.000363822910003 0.00363158714026 -0.0504908934236
316.541666667 -0.023798968643 0.179278045893 -0.000233400831348 -0.00133186555468 0.000271447148407 -0.000168912330992 -0.0695640221238 -0.143226027489
316.745833333 0.059755012393 0.107257395983 -0.00111387355719 0.000700977165252 -0.000180869232281 -0.000109967812023 -0.223859533668 -0.0348249226809
316.95 0.0386026315391 0.0104537215084 0.00119338859804 0.00128852494527 -5.53408608539e-05 0.000222620175919 -0.226638615131 0.107342042029
317.154166667 -0.0654642954469 0.022370679304 0.00107772229239 -0.00117504631635 0.000207818462513 -0.000126269747852 -0.10326039046 0.207354694605
