!Created with skrf (http://scikit-rf.org).
# GHz S RI R 50.0 
!freq ReS11 ImS11 ReS21 ImS21 ReS12 ImS12 ReS22 ImS22
290.0 -0.193798199296 -0.394316971302 -0.00742369145155 0.0173630360514 0.00220747501589 0.00472332816571 -0.141099840403 -0.261325329542
290.204166667 -0.674960196018 -0.0308453831822 -0.00100508809555 -0.00334426248446 -0.00244800746441 0.00187498878222 -0.310007750988 0.077823266387
290.408333333 -0.34144449234 0.704206764698 0.0100590139627 -0.0117894774303 -0.000172972984728 -0.00186108471826 -0.0337751470506 0.352645426989
290.6125 0.489492684603 0.440900325775 -0.0250432901084 -0.00957598816603 0.00106576294638 -0.000653362192679 0.280790358782 0.192976683378
290.816666667 0.344384223223 -0.427524000406 0.000693434325512 0.000885761051904 0.000860154046677 -0.000388324580854 0.153402134776 -0.175219237804
291.020833333 -0.508858442307 -0.390339195728 0.00579446693882 0.0142837036401 -4.10213760915e-05 -0.000316240504617 -0.181093081832 -0.172977566719
291.225 -0.219629734755 0.430639028549 0.00168130779639 -0.00210503581911 0.000220209316467 -0.00581852998585 -0.237373530865 0.233023658395
291.429166667 0.724433779716 0.218130722642 -0.000132786735776 -0.00295384298079 0.00134411558975 4.53062648376e-06 0.127999335527 0.48090326786
291.633333333 0.401252537966 -0.679264426231 -0.00528923003003 0.00278733368032 -0.00414875429124 -0.000795273808762 0.598881781101 0.136468961835
291.8375 -0.363217949867 -0.593020379543 -0.000161525123985 -0.000617879035417 0.00360282580368 -0.00112080899999 0.412992358208 -0.456119567156
292.041666667 -0.462884843349 0.157969042659 0.00241138017736 0.00152045662981 0.00117114279419 6.76066192682e-05 -0.250734120607 -0.458665132523
292.245833333 0.286653310061 0.197674125433 -0.00211228779517 -0.00142988422886 0.000598761311267 9.09668688109e-06 -0.421667516232 0.178083598614
292.45 0.278730332851 -0.574361979961 0.000844317837618 0.000234234772506 -0.000547314702999 0.00102085294202 0.0965967401862 0.372904896736
292.654166667 -0.485795557499 -0.573892056942 0.000165169054526 -0.000705866550561 8.94814511412e-05 -0.000394833827158 0.429617524147 -0.00809528492391
292.858333333 -0.664227068424 0.0385817587376 0.000916912744287 -0.000835880928207 -0.000505592499394 -0.000243147020228 0.106227785349 -0.442403376102
293.0625 -0.178982108831 0.542288482189 -0.000703571888153 0.000852340017445 0.000410540727898 -0.000681752571836 -0.268097430468 -0.220835879445
293.266666667 0.359741002321 0.145323514938 -0.00116707081906 0.00116872764193 0.000501899572555 5.26429503225e-05 -0.211732298136 0.218260258436
293.470833333 0.0548337176442 -0.291000574827 -0.00152412208263 -0.000191138824448 -0.00040256784996 -0.000446587160695 0.319009363651 0.211830809712
293.675 -0.323915362358 0.0285273957998 0.000173476786586 -0.00261812005192 -0.00177157309372 0.00196450157091 0.380038619041 -0.346555829048
293.879166667 -0.0448753684759 0.42442804575 -0.014753125608 -0.00551587436348 0.00064634316368 0.00253567728214 -0.252276927233 -0.419121056795
294.083333333 0.50759601593 0.0758439823985 0.00782157853246 -0.0116598494351 -0.00125165563077 0.000912308460101 -0.456848740578 -0.0143634481356
294.2875 0.214039206505 -0.463422805071 0.00575493881479 0.012178035453 0.00462943315506 0.00394202489406 -0.332978874445 0.289161235094
294.491666667 -0.503176629543 -0.275213301182 -0.00678101181984 -0.00186956557445 -0.00900051929057 -0.0110161332414 0.0647735968232 0.261055767536
294.695833333 -0.483671218157 0.521550893784 -0.000131012915517 0.00322046666406 -0.002399898367 -0.0137909492478 0.263881325722 -0.0223027542233
294.9 0.415812283754 0.732744038105 -0.00603082450107 -0.00120887334924 0.00656230794266 -0.0230713225901 0.146417081356 -0.734208762646
295.104166667 0.861219882965 0.149089843035 0.000498523877468 0.00331319239922 -0.0243310425431 -0.000530711491592 -1.18987524509 -0.159081369638
295.308333333 0.612500309944 -0.699508547783 0.00980825442821 -0.00148830947001 -0.00175703736022 -0.025086665526 -0.22991655767 0.724275827408
295.5125 -0.179132655263 -0.785973370075 0.0099459849298 -0.000133197754622 -0.00922090280801 0.00457601854578 0.458121687174 0.543514668941
295.716666667 -0.780628502369 -0.151023700833 -0.000859274819959 -0.000294360390399 8.45674512675e-05 -0.000679068209138 0.421508342028 -0.183985322714
295.920833333 -0.148266106844 0.6423792243 0.00491762859747 -0.00642748363316 -0.000657527358271 -0.00193632766604 -0.1599971205 -0.486326783895
296.125 0.777065336704 0.317738562822 -0.0162449665368 -0.0103650484234 -0.000958399265073 0.00130562798586 -0.514273405075 0.0460903681815
296.329166667 0.686098456383 -1.17178118229 -0.00207376899198 0.0425354912877 -0.000658987963106 0.000317906262353 -0.197320103645 0.37698546052
296.533333333 -1.44837069511 -1.36577355862 -0.0305604767054 -0.010319259949 -7.6835269283e-05 0.000786816235632 0.200747132301 0.378416091204
296.7375 -2.82318639755 0.190930739045 0.00655988557264 0.00397123396397 0.000394250819227 0.00128549174406 0.399731695652 -0.0503017045557
296.941666667 -1.77173268795 2.36202192307 0.000801154819783 -0.0109234396368 -0.000968722335529 0.000579752086196 0.0557754598558 -0.296245485544
297.145833333 1.58988022804 1.99249267578 -0.00419762730598 0.0101632205769 -0.000207345103263 -0.000248234020546 -0.206026464701 -0.00287736393511
297.35 2.43362641335 -0.472621381283 0.00470826774836 0.00985530205071 0.00042271707207 0.000713113404345 0.0385665036738 0.224276423454
297.554166667 0.787105321884 -2.42654252052 0.00474349688739 -0.00135800684802 -0.000270332791843 -7.06457867636e-05 0.283765673637 0.0832969769835
297.758333333 -1.42207157612 -2.27833771706 -0.00589779578149 -0.00217056972906 -0.000235063664149 -6.21372691967e-06 0.248144686222 -0.2016299963
297.9625 -2.90100693703 0.443635284901 0.000943479244597 0.00510909268633 0.000374901632313 -0.000375859672204 -0.0305625535548 -0.278134077787
298.166666667 -0.470285773277 2.66969561577 0.00282647227868 0.00468141213059 -0.000485038966872 0.000316393416142 -0.257707238197 -0.0959162786603
298.370833333 1.49632954597 0.822346925735 -0.0100538069382 -0.00828072056174 -0.00080650189193 0.000269343727268 -0.117020227015 0.236515924335
298.575 0.575279653072 -1.23001480103 9.3070730145e-06 -0.0067910538055 -0.000203321164008 0.00022516468016 0.168990343809 0.22721067071
298.779166667 -1.10114359856 -0.468400776386 -0.0010074673919 -0.00146207376383 -0.000496278575156 -0.000152153195813 0.402749061584 0.017612112686
298.983333333 -0.872929573059 0.90742623806 0.00783503707498 0.00193666026462 -0.000221400128794 -7.92269420344e-05 0.221017047763 -0.479402989149
299.1875 0.50221991539 1.4069814682 -0.0155119346455 0.00168493378442 6.63393293507e-05 -0.000359451689292 -0.35570949316 -0.409655243158
299.391666667 1.38835012913 0.208157867193 4.02914811275e-05 0.00157644890714 0.000147087892401 0.000118642514281 -0.470447033644 0.137320518494
299.595833333 0.811491131783 -0.823754966259 -0.00183913635556 0.0036139592994 0.000165982957697 -9.10726521397e-06 0.0719800889492 0.287196040154
299.8 -0.354368001223 -0.704214930534 0.00165216333698 -0.00158614292741 -0.00024621465127 9.3558934168e-05 0.221806690097 -0.121420271695
300.004166667 -0.57730615139 0.359663903713 0.00237010139972 -0.00107211491559 -0.000153503147885 -0.000357503187843 -0.206126511097 -0.388050764799
300.208333333 0.0683852508664 0.914048552513 -0.000865913461894 -0.000384777871659 -4.87767028972e-05 0.000126112950966 -0.551987230778 0.0908685028553
300.4125 1.06117033958 0.417565971613 0.000110201472125 -5.14774437761e-05 -0.000194407388335 -0.000199827889446 -0.307645380497 0.579454004765
300.616666667 0.637627363205 -0.85782533884 0.000406300270697 0.000314900738886 -0.000173194071976 2.73549394478e-05 0.285161793232 0.668776988983
300.820833333 -0.559912264347 -0.885647475719 0.000419832504122 -0.000199760339456 0.000376503099687 -4.01124925702e-05 0.630407392979 0.0782122462988
301.025 -1.05362308025 0.300930589437 -0.000713835645001 -0.000207818346098 -0.000336322380463 0.000574606470764 0.296787381172 -0.441356569529
301.229166667 0.0510099604726 0.877635240555 -0.000136607079185 -0.000510406447574 0.000719175790437 -0.000267221650574 -0.407087415457 -0.325103878975
301.433333333 0.740275859833 0.301074683666 -0.000187820231076 0.000794788589701 -0.00013065818348 3.4642056562e-05 -0.451579034328 0.378478109837
301.6375 0.693303883076 -0.496276676655 0.000524631992448 -0.000165462552104 -7.60531329433e-05 -0.000500328780618 0.156946450472 0.672835350037
301.841666667 -0.0563580170274 -0.752421796322 0.000312283751555 0.00106835074257 0.000776100670919 -1.87235873454e-05 0.677393436432 0.150602310896
302.045833333 -0.606666862965 -0.160559281707 7.82251736382e-05 0.000488797901198 -0.000340628728736 -0.000548875774257 0.350225925446 -0.401438802481
302.25 -0.148766264319 0.495545119047 9.88243991742e-05 9.78342286544e-05 0.000936318712775 8.83325992618e-06 -0.142605364323 -0.438930004835
302.454166667 0.391437143087 0.219955891371 0.000232098405831 0.000632763199974 0.000173749271198 0.00018515366537 -0.467376708984 0.127157375216
302.658333333 0.421861946583 -0.402289897203 0.000586119596846 0.000638485827949 8.01031201263e-05 7.46157893445e-05 0.0872721076012 0.468972116709
302.8625 -0.326225787401 -0.73827713728 0.00129486399237 0.000568679708522 0.000100480319816 2.90388470603e-05 0.5500831604 0.145715504885
303.066666667 -0.948001801968 -0.283798754215 0.000643008097541 -0.000771917460952 -0.000116817558592 0.000177696565515 0.552651107311 -0.459739536047
303.270833333 -0.812096714973 0.690544486046 2.38992361119e-05 -0.000404135644203 0.000206536526093 0.000154384921188 -0.052328992635 -0.703687548637
303.475 0.535432338715 1.03048336506 -0.000262494781055 -0.00025279269903 0.000724446028471 -4.04507554777e-05 -0.548031508923 -0.400362551212
303.679166667 1.01693236828 -0.155919134617 -0.000185593802598 -0.000407564279158 0.000193539774045 7.01428944012e-05 -0.628401398659 0.456911891699
303.883333333 0.174981385469 -0.898202419281 4.724054088e-05 8.44837995828e-05 8.09522607597e-05 -7.89824698586e-05 0.347526192665 0.625304877758
304.0875 -0.704449236393 -0.352184832096 8.69995274115e-05 2.01877137442e-05 6.66982741677e-05 -4.77358189528e-05 0.83152705431 -0.148071706295
304.291666667 -0.398210197687 0.541512668133 4.7020472266e-05 -0.000172823172761 0.000117638192023 0.000118236028356 0.313290536404 -0.862510681152
304.495833333 0.333434969187 0.468870013952 7.67311430536e-05 3.84580635e-05 4.22003395215e-05 -7.57488087402e-05 -0.449907839298 -0.68036532402
304.7 0.544414103031 -0.191208690405 7.76186279836e-05 0.000271418946795 -2.37261119764e-05 -3.79955345124e-05 -0.802379310131 -0.099936299026
304.904166667 0.0597235783935 -0.656879127026 6.98315488989e-05 -0.000155645888299 3.25643813994e-05 -2.32565598708e-05 -0.527052164078 0.607830047607
305.108333333 -0.62161886692 -0.345106393099 -0.00021521106828 0.000100635857962 -0.000105040169728 -4.29331448686e-05 0.261030226946 0.634667217731
305.3125 -0.656642138958 0.513039708138 5.69792791794e-05 4.3012380047e-05 -0.000101482786704 0.000150022140588 0.651486337185 0.0295066535473
305.516666667 0.157721877098 0.95740377903 -0.000195100772544 -4.6585835662e-05 4.47616766905e-05 7.97899774625e-05 0.240602850914 -0.603223800659
305.720833333 1.17130208015 0.413236200809 7.38508533686e-05 -0.000507683900651 3.56882883352e-05 7.09472124072e-06 -0.404016554356 -0.526302814484
305.925 1.07402861118 -1.05319285393 0.000853439734783 -0.000157209811732 -1.69109025592e-05 7.55071141612e-06 -0.653419017792 -0.0493637882173
306.129166667 -0.313009798527 -1.36857509613 0.000183522759471 -0.000294972065603 -4.2730691348e-05 6.46799380775e-05 -0.42183381319 0.51964277029
306.333333333 -1.20368337631 -0.108222447336 -0.000168190352269 -0.000132603585371 1.5617815734e-05 6.71550296829e-05 0.251431316137 0.457859098911
306.5375 -0.461580246687 0.895143568516 -6.05259447184e-05 -0.000215885360376 -3.59739096893e-05 1.9602557586e-06 0.430998772383 -0.139474198222
306.741666667 0.519664943218 0.791418433189 0.000563863955904 -0.000213693681872 1.85033459275e-05 -2.90747175313e-05 -0.119546197355 -0.447239905596
306.945833333 1.01769733429 -0.00668697152287 0.000428614614066 -0.000632191018667 -5.23233666172e-06 -2.42146325036e-05 -0.487032026052 0.031379930675
307.15 0.386320233345 -0.779029786587 -0.000172778381966 0.000460215727799 4.65524935862e-05 -2.97942460747e-05 -0.254993677139 0.579966366291
307.354166667 -0.442346811295 -0.566143035889 0.000440215080744 -0.000988906132989 -3.93767149944e-05 -5.27176161995e-05 0.45222517848 0.700531423092
307.558333333 -0.759171187878 0.016756400466 -0.00126447016373 -0.00010663294961 2.49975182669e-05 -6.39798745397e-05 0.806306064129 -0.0470867045224
307.7625 -0.23547232151 0.921573519707 -0.00043665515841 -0.00145788129885 -3.32900199282e-05 5.51196098968e-05 0.316915094852 -0.623305082321
307.966666667 0.585329592228 0.553010523319 0.00044215307571 0.00013060690253 7.74365526013e-06 5.6837543525e-05 -0.395873993635 -0.537742555141
308.170833333 0.759328246117 -0.347229987383 0.000149889543536 -0.000217631823034 3.36417069775e-05 -6.12294898019e-05 -0.53177946806 0.218934297562
308.375 0.00607997179031 -0.995467424393 -0.000302345608361 4.84707052237e-05 -4.72489364256e-06 5.92726200921e-06 0.0554502159357 0.513542294502
308.579166667 -0.893206655979 -0.55037176609 -0.000295616831863 6.4801213739e-05 -2.70724249276e-05 -6.02289364906e-05 0.572875916958 0.255733370781
308.783333333 -1.03858745098 0.364531964064 -9.18215755519e-06 0.000264786416665 -7.09636697138e-06 -2.01023740374e-05 0.566002964973 -0.337296336889
308.9875 -0.131246641278 0.934920966625 0.000237395812292 -0.000591123127379 1.33808071041e-05 2.14287665585e-05 0.0770044624805 -0.6195089221
309.191666667 0.620565056801 0.390848249197 -0.000426517479355 0.00010382111941 -3.95400775233e-07 -8.6488071247e-06 -0.490127414465 -0.400232940912
309.395833333 0.573911547661 -0.459404528141 0.00034637292265 0.000563089328352 -4.16222246713e-05 5.79766383453e-05 -0.465462803841 0.332955569029
309.6 -0.282093465328 -0.879204690456 0.000144825695315 -0.000506087148096 1.82909407158e-05 -2.55629092862e-05 0.170269757509 0.471255451441
309.804166667 -0.961229085922 -0.129384100437 3.06097244902e-05 0.000184788616025 9.78439584287e-06 6.91442846801e-06 0.569366157055 0.0464406684041
310.008333333 -0.617144286633 0.715861141682 0.000515175692271 -0.000478908506921 4.96463399031e-05 2.23234255827e-05 0.305033892393 -0.581353127956
310.2125 0.208643183112 0.935256242752 -0.000191059778444 0.00013522215886 -1.64425273397e-05 3.28279675159e-05 -0.345959246159 -0.608403086662
310.416666667 0.679973959923 0.285560071468 5.90707204537e-05 -6.07658876106e-05 -4.51724372397e-05 -1.18871902544e-07 -0.749089837074 -0.249803543091
310.620833333 0.404380917549 -0.361603349447 -6.57388081891e-05 -9.81091070571e-05 -1.54994613695e-05 -5.71641503484e-05 -0.558293163776 0.39061537385
310.825 -0.220457628369 -0.436634689569 -4.20266624133e-05 -9.59460248851e-06 -6.55567346257e-05 -4.92232793476e-05 0.118196673691 0.421341955662
311.029166667 -0.53120881319 0.0400992445648 -9.37998702284e-05 -3.83102924388e-05 -5.93883451074e-05 2.17213309952e-05 0.275336951017 -0.000113473033707
311.233333333 -0.206866562366 0.542694270611 -9.72368725343e-05 6.35358737782e-05 -8.55151301948e-06 3.63747385563e-05 0.064923800528 -0.333541423082
311.4375 0.363464146852 0.412423253059 -3.93680893467e-05 -4.92066428706e-05 -5.98702572461e-05 7.88690085756e-05 -0.387954354286 -0.243752464652
311.641666667 0.516177177429 -0.169599443674 8.64292451297e-05 -4.68878279207e-05 -3.26698173012e-05 -0.000112498637463 -0.487587541342 0.176652312279
311.845833333 0.0270719546825 -0.616215229034 0.00021151942201 0.000651138368994 3.47001587215e-05 3.66336171282e-05 -0.193487688899 0.54083365202
312.05 -0.567132294178 -0.191809132695 -0.000658330623992 -8.66340415087e-05 -6.96935749147e-05 -1.68789265445e-05 0.34000352025 0.512270748615
312.254166667 -0.390744835138 0.546454489231 0.000238190055825 4.47632082796e-05 1.18713578559e-05 1.44162031575e-05 0.531526744366 0.0443577766418
312.458333333 0.346903443336 0.607524335384 0.000112313333375 -6.9024390541e-05 -2.03378476726e-05 -9.80517779681e-06 0.313054263592 -0.416015654802
312.6625 0.780287146568 0.133512809873 2.96849757433e-05 -0.000428987958003 3.33279422193e-05 1.42310545925e-05 -0.321730732918 -0.522128343582
312.866666667 0.653222858906 -0.628272235394 -4.52144704468e-05 0.000420845783083 -6.69529072184e-06 -6.53828101349e-05 -0.700435519218 0.06621465832
313.070833333 -0.126288607717 -0.919765949249 5.72512108192e-05 0.000209270496271 -8.21078865556e-05 2.30224995903e-05 -0.399479836226 0.725122392178
313.275 -0.768087208271 -0.432795464993 -0.00026391344727 6.42792219878e-05 5.88782895647e-05 -1.00421138995e-05 0.480054616928 0.783127367496
313.479166667 -0.575360059738 0.3969874084 -0.000228865392273 0.000648549292237 -0.000185180717381 0.000299431907479 0.818067669868 0.0618053413928
313.683333333 0.192281901836 0.507670164108 -0.000225842624786 7.60156690376e-05 0.000197171844775 1.34863521453e-05 0.49555593729 -0.577211916447
313.8875 0.572481095791 0.0213710237294 1.40560277941e-05 0.000418676005211 0.000243500966462 -0.000101505676867 -0.270348876715 -0.697233378887
314.091666667 0.389065355062 -0.621323168278 -0.000390059780329 0.000180791670573 0.000166402300238 -0.000147288665175 -0.797878742218 0.178532779217
314.295833333 -0.39885532856 -0.77499806881 -0.000142768374644 1.43469751492e-05 2.68447238341e-05 -7.08014922566e-05 -0.129054039717 0.865153372288
314.5 -0.809068083763 -0.101799480617 -0.000198299836484 -2.42812857323e-05 -0.000114252594358 2.11540718738e-05 0.694588065147 0.785281717777
314.704166667 -0.513958394527 0.565153777599 -6.86796847731e-05 -8.93620162969e-05 -0.000159748786245 0.000121183649753 1.03780174255 -0.188441216946
314.908333333 0.162118315697 0.738152444363 5.68820432818e-05 -0.000341741339071 0.000326661102008 0.000203208299354 0.522525310516 -0.947292625904
315.1125 0.699195384979 0.16553914547 -0.00015911902301 -5.59467371204e-05 -0.000103519683762 0.000110411994683 -0.381808131933 -1.03970563412
315.316666667 0.445843070745 -0.493166208267 -8.1156824308e-05 1.26697595988e-05 0.000195163724129 0.000139504481922 -1.27127766609 -0.66924905777
315.520833333 -0.189693704247 -0.641859471798 4.92462349939e-05 4.60582014057e-05 -0.000203781251912 -8.17102772999e-05 -1.2068156004 0.674826920033
315.725 -0.590709269047 -0.121090143919 0.000123302001157 -5.46000956092e-05 2.11070419027e-05 -5.37955093023e-05 0.312766760588 0.97479224205
315.929166667 -0.508356034756 0.400183320045 1.21125322039e-05 1.77613255801e-05 -0.000101867153717 -3.28924506903e-05 0.85571295023 -0.145785599947
316.133333333 -0.0215393416584 0.703064978123 4.86566641484e-05 9.38122539083e-05 -7.31132149667e-06 -6.61684098304e-05 -0.0121044181287 -0.830476462841
316.3375 0.603575706482 0.311552107334 -3.72039648937e-05 -1.05626249933e-05 2.75965903711e-05 -9.27724522626e-06 -0.644086539745 -0.671260893345
316.541666667 0.437737226486 -0.334261924028 0.000141437296406 -4.4780645112e-05 -2.13331368286e-05 2.4424321964e-05 -0.94272685051 -0.190717190504
316.745833333 -0.0993493571877 -0.575961172581 -9.60049874266e-05 3.53710856871e-05 -9.40359950619e-06 3.65854543816e-06 -0.450867414474 0.800022363663
316.95 -0.753202736378 -0.199834808707 -3.9778991777e-05 9.70516339294e-05 -1.20307158795e-05 7.18653109288e-06 0.298094242811 0.741234719753
317.154166667 -0.515713989735 0.672732293606 4.14940041082e-05 -5.76405182073e-05 -6.80351513438e-06 -7.81707421993e-06 0.732114553452 0.129817649722
317.358333333 0.219778358936 0.883794188499 -3.02575353999e-05 -4.93805637234e-05 -3.5140044929e-05 1.78715922061e-08 0.450880229473 -0.624542593956
