!Created with skrf (http://scikit-rf.org).
# GHz S RI R 50.0 
!freq ReS11 ImS11 ReS21 ImS21 ReS12 ImS12 ReS22 ImS22
290.0 -0.0914769247174 0.503525078297 0.00979486387223 0.0440862253308 -0.00244325143285 0.00210616714321 -0.0173600893468 -0.0388119928539
290.204166667 0.508280813694 0.281738609076 0.0146392611787 -0.0111078536138 -0.000878012389876 0.00188894174062 -0.0480995364487 -0.0299044661224
290.408333333 0.0981964990497 -0.260952115059 0.00470927683637 0.00158113916405 -0.000607668887824 0.00177644786891 -0.0727606937289 0.0134024843574
290.6125 -0.221410468221 0.156503945589 -0.000487219978822 -0.00157916906755 -0.000522368820384 0.00156556512229 -0.0698915049434 0.0574122779071
290.816666667 0.310632497072 0.164674073458 0.00969716813415 -0.0121522368863 -0.00020734257123 0.00015812368656 -0.0387257710099 0.101699523628
291.020833333 0.0500657297671 -0.345886558294 0.00560183031484 -0.00678048888221 0.000585241010413 0.000111798253783 0.0324529707432 0.123338259757
291.225 -0.221039265394 0.193844199181 -0.000965403043665 -0.00539109529927 0.0044503826648 0.00622679851949 0.107593923807 0.103396579623
291.429166667 0.463728219271 0.0914952605963 -0.00161095021758 0.0013616643846 -0.00190177245531 -7.21615288057e-05 0.146853744984 0.0476241968572
291.633333333 0.0996414497495 -0.408905953169 0.00381180038676 -0.0104735149071 0.00094776134938 0.00050630082842 0.144135072827 -0.0230758581311
291.8375 -0.19603420794 -0.0134898899123 0.00268716178834 -0.000619470549282 -0.000542948371731 0.00324210128747 0.0974252745509 -0.059485655278
292.041666667 0.357459872961 -0.0312498640269 0.000217694338062 -0.00578211247921 -0.000464730896056 -0.0017221965827 0.0423743762076 -0.079741768539
292.245833333 -0.0241070035845 -0.667123615742 -0.00383940571919 0.00214321608655 0.00138062273618 -0.00231138034724 -0.00815206207335 -0.0592207349837
292.45 -0.604770839214 -0.154504090548 3.03725155391e-05 4.38132665295e-05 0.000236115447478 0.000396196381189 -0.0237685889006 -0.0219131112099
292.654166667 -0.173978626728 0.224380448461 -0.000908106158022 0.00132656411733 0.000182324030902 0.00100785295945 -0.00194570352323 0.0199986230582
292.858333333 -0.0267902687192 -0.14655521512 9.27654691623e-05 0.000357456010533 -0.00114344398025 0.0003639710485 0.0662907212973 0.0287225916982
293.0625 -0.343947142363 0.0165480468422 -0.00123012228869 -0.00123389111832 -0.000217514578253 0.000602032931056 0.131751582026 -0.0121609112248
293.266666667 0.00480897678062 0.386114567518 -0.000344505300745 -6.80816010572e-05 0.000427997787483 0.000217214139411 0.15447448194 -0.0895578563213
293.470833333 0.273472607136 -0.0258928705007 -0.00502159865573 0.000806304626167 0.00193619367201 -0.000360598438419 0.0987154319882 -0.170136213303
293.675 -0.11593914777 -0.0908849537373 0.00143817253411 -0.00364486547187 0.00283863558434 5.79290717724e-05 -0.0113577088341 -0.193530440331
293.879166667 0.0648984313011 0.235562667251 -0.00458190822974 -0.00336976675317 0.00439266115427 0.000603227701504 -0.112108044326 -0.134756609797
294.083333333 0.291125953197 -0.138801276684 -0.000807464879472 0.00967065617442 0.0108805401251 0.000102850317489 -0.173466011882 -0.0466338358819
294.2875 -0.214092597365 -0.216992929578 0.00986385531723 -0.00136673939414 0.00360722932965 0.00257722730748 -0.185627385974 -0.0553964823484
294.491666667 -0.104156784713 0.373257309198 -0.0101987551898 -0.00513128982857 -0.00732594868168 1.9589684598e-05 -0.149605959654 -0.0285386312753
294.695833333 0.470882475376 0.204704537988 0.00904728565365 -0.0115674482659 -0.0140572814271 0.0198832340539 -0.19554336369 0.00438784155995
294.9 0.285284727812 -0.386603683233 0.00221131229773 0.00283636408858 -0.0117900529876 0.0193207059056 -0.263186722994 -0.024541772902
295.104166667 -0.215986669064 -0.0312279891223 0.0198551099747 0.00356420967728 0.0273810755461 -0.0118163665757 -0.14734570682 0.185274392366
295.308333333 0.172584190965 0.355564951897 0.00810322165489 0.00647672265768 -0.000340039026923 -0.0268122535199 0.044826362282 -0.00191424041986
295.5125 0.690548539162 -0.199504852295 -0.00280396500602 0.00567814381793 0.0160124171525 -0.0169729460031 -0.0996319949627 -0.0589365698397
295.716666667 0.111899539828 -0.810037732124 0.00912864226848 -0.0105682313442 -0.00534313172102 0.00132734747604 -0.1512901932 -0.0103247603402
295.920833333 -0.592738866806 -0.248847484589 -0.00478417007253 0.000305401801597 0.00271872617304 -0.000718201394193 -0.154259264469 0.0549576841295
296.125 0.116598211229 0.265983134508 0.0149518614635 0.0247159264982 0.000935020681936 -0.000217401000555 -0.0951311290264 0.107561774552
296.329166667 0.38763576746 -0.730300247669 -0.0163706373423 -0.00911060906947 0.00128580466844 0.000694452028256 -0.0434972085059 0.116032086313
296.533333333 -1.25450193882 -0.701585292816 -0.0177094396204 0.00823440682143 -0.00028254269273 0.000491162354592 0.00141900172457 0.131706088781
296.7375 -1.46774077415 1.15466105938 -0.000296171667287 -0.0133989127353 -0.000673026195727 0.000102771256934 0.0842370763421 0.136637166142
296.941666667 0.728066504002 0.955336093903 -0.00888980831951 0.0148303089663 -0.0004458790645 0.000129735286464 0.151725202799 0.0891888439655
297.145833333 0.400345414877 -1.25627791882 0.0200002659112 -0.0181000921875 0.000114776303235 0.000390831351979 0.140015363693 0.016298243776
297.35 -1.6958783865 -0.79876357317 0.00845964625478 0.00750607671216 -5.72942772123e-05 0.000536366133019 0.101941503584 -0.053056307137
297.554166667 -1.18568456173 1.08058512211 -0.01384604536 0.00876889005303 -0.000181082083145 5.0200565056e-06 0.0565416701138 -0.0738645046949
297.758333333 0.946541070938 1.022970438 -0.00895696971565 -0.00404702080414 -0.000189216400031 7.68674944993e-05 0.023740272969 -0.0603816471994
297.9625 0.616103410721 -1.71208178997 -0.00223587243818 -0.00576113676652 0.000597280391958 -7.54426946514e-05 0.00799128133804 -0.0410260669887
298.166666667 -2.18487811089 -1.06768393517 0.000524125120137 -0.0069684330374 -0.000729004852474 0.000220406742301 0.0105970837176 -0.0303914900869
298.370833333 -1.15557289124 1.12786591053 -0.00867230910808 0.00135242496617 -4.19988828071e-05 0.000413721398218 0.0216589048505 -0.0330617427826
298.575 0.461576372385 0.274781852961 -0.000316024234053 0.0081803156063 0.000301805412164 -0.000403504323913 0.037663269788 -0.0405638664961
298.779166667 -0.460268586874 -0.377238839865 0.00164767017122 0.000452239968581 -0.000175344961463 0.000311140815029 0.0550223328173 -0.0500756911933
298.983333333 -0.601413726807 0.685645103455 0.00675142463297 -0.00502293976024 0.000247867719736 -0.00018294309848 0.0638136565685 -0.0877945944667
299.1875 0.577224671841 0.851229250431 0.0080574369058 0.00231458921917 -7.50938997953e-05 -0.000308829447022 0.0238655488938 -0.163469985127
299.391666667 0.652829706669 -0.228521376848 0.0015716094058 -0.000261352717644 6.86919956934e-05 0.000159808783792 -0.078705497086 -0.201111808419
299.595833333 -0.252242922783 -0.143861100078 0.00413899915293 -0.000215526451939 0.000202936280402 -1.23116169561e-05 -0.176943048835 -0.152086481452
299.8 -0.00632380601019 0.629073500633 -0.00268665608019 -0.00102915451862 -0.000109958593384 -0.000176236295374 -0.211925640702 -0.0615896135569
300.004166667 0.846774697304 0.258707910776 0.00314689148217 -0.000749269558582 0.000516480999067 -0.000429743347922 -0.215408414602 0.0705978795886
300.208333333 0.550038337708 -0.712318897247 -0.001332320855 -0.00145414099097 -0.00025898552849 0.000133407709654 -0.141517102718 0.168069288135
300.4125 -0.428127616644 -0.360165536404 0.00113080930896 0.000334739102982 -0.000337799254339 -0.000172579806531 -0.0605968646705 0.213723435998
300.616666667 -0.0275966748595 0.478939294815 0.000141156095196 0.000388196029235 -0.000351854687324 -0.000282281747786 0.0117441276088 0.221861928701
300.820833333 0.584471821785 -0.129956185818 -0.000265455368208 -0.000241948888288 0.000249576027272 0.000143853772897 0.0849613696337 0.204645752907
301.025 -0.131856575608 -0.694706916809 0.000155696005095 0.000447830971098 -0.000113228925329 0.000833235739265 0.13540096581 0.172518610954
301.229166667 -0.485517054796 0.247684195638 -2.89630097541e-05 0.000144731544424 0.000350365909981 0.000288189068669 0.15773704648 0.113532595336
301.433333333 0.271151453257 0.418047398329 0.0008514681831 -8.71452939464e-05 -8.22141737444e-05 -0.000592826108914 0.145428061485 0.0523731708527
301.6375 0.532246410847 -0.217521607876 -0.000839419080876 0.000377600663342 0.000441933370894 9.69236643868e-05 0.101122580469 0.000754235836212
301.841666667 -0.0999900624156 -0.46512144804 -0.000258917425526 0.000234698047279 -7.642415585e-05 -0.00032908981666 0.0405493192375 0.00541786337271
302.045833333 -0.269289135933 0.145013451576 -7.59046888561e-05 -0.000234281629673 0.000290125055471 -0.000344976695487 0.0273533277214 0.0480648949742
302.25 0.306761562824 0.11320129782 3.55782322004e-05 -0.000209688660107 -0.000233551763813 0.00110432354268 0.0549971014261 0.0770984813571
302.454166667 0.136153683066 -0.410494744778 0.000263184483629 -0.000333204283379 -6.47208344162e-06 0.000470601808047 0.0999220311642 0.0567641071975
302.658333333 -0.451335251331 -0.21851170063 -0.000589930976275 -0.000839308544528 -6.52964008623e-05 3.29006143147e-05 0.115344315767 0.000973857357167
302.8625 -0.299337148666 0.404677569866 0.000328099471517 -0.000428324972745 0.000104236831248 -0.000108377491415 0.116111792624 -0.0527487955987
303.066666667 0.395223736763 0.286750465631 0.00035427781404 0.00016132563178 -7.22626355127e-05 -0.000309508410282 0.12000823766 -0.0928650721908
303.270833333 0.141725644469 -0.461212545633 0.000125003512949 -0.000730505678803 4.49332364951e-05 0.000251654681051 0.100561879575 -0.143332093954
303.475 -0.696948647499 -0.11344127357 0.000112652174721 -0.000309403287247 -0.000443878496299 0.000490929291118 0.0617817007005 -0.185546860099
303.679166667 -0.0699640586972 0.778094053268 0.000303121632896 -6.9433634053e-05 -4.33299937868e-05 -0.000173378110048 -0.0224592071027 -0.246613368392
303.883333333 0.634070813656 0.0547918453813 -5.32678277523e-05 9.60827310337e-05 0.000356270611519 0.000139658412081 -0.122038528323 -0.221076399088
304.0875 -0.0253638364375 -0.530255317688 5.10882091476e-05 -0.000175360633875 3.12838164973e-05 -9.70099936239e-05 -0.190397262573 -0.15079370141
304.291666667 -0.424661397934 0.157427832484 -9.38202210818e-05 -6.8836430728e-05 -3.41427985404e-05 -6.0921003751e-05 -0.172930717468 -0.0613286532462
304.495833333 0.174645647407 0.326758056879 -0.000349889334757 0.000101589037513 -1.83925549209e-05 -3.07333284582e-05 -0.113493524492 0.0032190985512
304.7 0.264260977507 -0.22167019546 0.000139640629641 0.00014342374925 1.08604190245e-05 3.72967624571e-05 -0.0574527978897 0.0215315576643
304.904166667 -0.327247321606 -0.297917544842 5.83975452173e-05 -1.83846932487e-05 1.46125012179e-06 5.87070790061e-05 -0.0194638222456 0.00596543122083
305.108333333 -0.37975102663 0.390848219395 1.17889876492e-05 4.32734850619e-05 -4.41483389295e-05 -1.14226650112e-05 -0.00612884992734 -0.0160238966346
305.3125 0.32911247015 0.537093997002 0.000216094675125 7.71777049522e-05 -2.03797353606e-05 5.24421921e-05 -0.0101108569652 -0.0291255321354
305.516666667 0.620312154293 -0.227603644133 0.000366718770238 -9.54444985837e-05 -0.000125084567117 -0.000157116068294 -0.0183918625116 -0.0344624221325
305.720833333 -0.300369590521 -0.489411652088 5.40564033145e-05 2.83151111944e-05 1.59445753525e-05 -3.79447810701e-05 -0.032069157809 -0.0502226017416
305.925 -0.377220600843 0.544577240944 0.000282354274532 0.000104645216197 3.75269628421e-05 1.07497726276e-05 -0.0574031807482 -0.062907628715
306.129166667 0.812114417553 0.49079734087 0.000624758831691 0.000485408119857 3.89859451388e-05 1.20122113003e-05 -0.102182120085 -0.0580250881612
306.333333333 0.634638130665 -0.754788458347 -0.000339655816788 0.00011886129505 -7.48883940105e-06 -5.12063415954e-05 -0.136820569634 -0.00154890189879
306.5375 -0.415099352598 -0.824121236801 0.000291795906378 -4.93637844556e-06 -2.04219759325e-06 -4.29879000876e-05 -0.120652548969 0.0909723863006
306.741666667 -0.639880299568 0.285531431437 4.31186235801e-05 -0.000575780111831 3.18109996442e-05 4.43347234977e-05 -0.0525298677385 0.139564335346
306.945833333 0.267234385014 0.49389436841 -0.000176868677954 -0.000822323199827 1.96967666852e-05 -1.77732599695e-05 0.0191055573523 0.145060256124
307.15 0.480007320642 -0.252471238375 0.000538876221981 -1.49693414642e-05 2.16325424844e-05 -1.42296548802e-05 0.0995977073908 0.133952096105
307.354166667 -0.239419385791 -0.437497407198 -0.000158029215527 0.000815405568574 4.75743436255e-05 3.53096111212e-05 0.151309043169 0.084420338273
307.558333333 -0.467373728752 0.137237817049 0.000463784119347 0.00104627886321 -1.55605994223e-05 -2.54313017649e-05 0.152346566319 0.0175652485341
307.7625 0.28678882122 0.527087628841 -0.000263270194409 -0.000807298289146 -3.79958000849e-05 1.57499130182e-06 0.132162690163 -0.0384852476418
307.966666667 0.568521678448 -0.178150981665 -0.000285559712211 -0.000158167196787 6.53263350614e-06 -1.29167056002e-05 0.107621222734 -0.0763648897409
308.170833333 -0.12589687109 -0.60033339262 0.000221802620217 -0.000887320318725 6.56245720165e-06 4.4054693717e-05 0.0674100518227 -0.107033118606
308.375 -0.527395367622 0.0897909402847 -0.000607818190474 -0.000479348294903 8.44341775519e-05 -2.44921175181e-05 0.0100446883589 -0.108633212745
308.579166667 0.181432023644 0.401005744934 -5.98313599767e-05 0.000656413612887 2.68447001872e-05 -4.96761749673e-05 -0.0202732942998 -0.0798408165574
308.783333333 0.485682606697 -0.4490686059 -0.000572708551772 -4.4529508159e-05 4.25410507887e-05 5.31215846422e-06 -0.0153478011489 -0.0341845564544
308.9875 -0.381473273039 -0.762064635754 5.58110732527e-05 0.000231555735809 -2.51617780123e-06 3.001942423e-05 0.0146767683327 -0.00845896918327
309.191666667 -0.892956793308 -0.12173820287 0.000480142538436 -0.0010956178885 -4.59544244222e-05 -3.12260999635e-05 0.0490358918905 -0.0165470521897
309.395833333 -0.318298429251 0.5787550807 -0.000184085962246 -0.000516779080499 -3.74840892619e-05 -9.69576012722e-06 0.0587580613792 -0.0504138171673
309.6 0.374292612076 0.116337448359 -0.000216152620851 -0.000297477294225 -2.03420477192e-05 -1.74470933416e-05 0.0423291996121 -0.0830314829946
309.804166667 -0.172580569983 -0.4506957829 8.72932141647e-05 0.000509574718308 -4.98270856042e-06 3.32196323143e-05 0.015593463555 -0.106937140226
310.008333333 -0.608222603798 0.156274437904 4.67977724838e-06 0.000195230401005 -2.19546691369e-05 0.000137059483677 -0.0257694683969 -0.115837678313
310.2125 -0.111500009894 0.689372420311 -0.000144114295836 3.07178538606e-06 -1.04058954093e-05 -4.18808231188e-05 -0.0737377852201 -0.119222663343
310.416666667 0.441549569368 0.241764172912 -8.77804704942e-05 0.000110085151391 9.4827490102e-05 -8.11349018477e-05 -0.115549959242 -0.129091307521
310.620833333 0.13114310801 -0.281275421381 0.000245412258664 7.58931200835e-05 -1.1249153431e-05 -5.80008781981e-06 -0.139843031764 -0.0934899225831
310.825 -0.325712710619 -0.0266721677035 9.68257008935e-05 6.51650407235e-05 6.02250802331e-05 -3.28210298903e-05 -0.149040222168 -0.0196295566857
311.029166667 -0.0999957770109 0.380694508553 -6.93094189046e-05 -3.5690896766e-05 -7.70640472183e-05 -8.61850712681e-05 -0.112629286945 0.036176931113
311.233333333 0.373681932688 0.1875692904 0.000167407299159 -3.17292983709e-06 6.46599946776e-05 1.24578637042e-05 -0.0952771380544 0.0759412646294
311.4375 0.0972605794668 -0.312860429287 -0.000122417142848 1.38637369673e-05 0.000116028291814 1.55955494847e-05 -0.0704413875937 0.109967365861
311.641666667 -0.318792313337 0.0187739226967 -2.58107575064e-05 0.000110225286335 8.6605657998e-05 4.90891616209e-05 -0.0309891123325 0.114253245294
311.845833333 0.0310741662979 0.536497175694 8.90462445113e-07 -0.000210926504224 5.08881093992e-05 -8.3154081949e-05 -0.000450680556241 0.0968251749873
312.05 0.563884317875 0.088964857161 -0.0004347555805 0.00041198550025 -1.51901949721e-05 -4.60351020592e-06 0.0109091531485 0.08935893327
312.254166667 0.237976372242 -0.405000030994 -0.00014278589515 -0.000548496551346 -2.23362058023e-05 3.32490490109e-05 0.017980389297 0.080515883863
312.458333333 -0.29876691103 -0.143990620971 -0.000267971016001 -0.000251425924944 -0.000148750361404 -6.46492335363e-05 0.0266426894814 0.0746990889311
312.6625 0.0154136652127 0.394437849522 -0.000752596068196 7.72493731347e-05 8.08573822724e-05 -4.89542471769e-05 0.0349748916924 0.0752364397049
312.866666667 0.580183506012 0.0789087861776 -0.000155841873493 6.2377883296e-05 8.52934754221e-05 -0.000133748908411 0.0375615954399 0.072616070509
313.070833333 0.395610958338 -0.625180065632 0.000147265949636 -0.000115162991278 2.28197277465e-05 -2.9388220355e-05 0.034412458539 0.0727265924215
313.275 -0.39125970006 -0.580034017563 2.35966836044e-05 0.000123083111248 9.47345688473e-06 7.18796763977e-06 0.0388180352747 0.0825743377209
313.479166667 -0.383837431669 0.17849907279 0.000249161472311 -0.000232324760873 -8.66221162141e-05 0.000186945442692 0.0545670539141 0.0965302959085
313.683333333 0.256656199694 0.179742544889 4.0240407543e-05 -0.00030209243414 -2.72107863566e-05 -0.000226565651246 0.0982513651252 0.107385762036
313.8875 0.306290656328 -0.382058769464 0.000190291786566 0.000143896759255 -2.07458779187e-05 -0.00057479494717 0.15018594265 0.100082457066
314.091666667 -0.349892884493 -0.558412432671 -3.0856263038e-05 0.000213522624108 0.000324735156028 -5.55344486202e-05 0.234862789512 0.045469161123
314.295833333 -0.600519776344 0.151381626725 -0.000105573475594 -0.000246863055509 5.89373412367e-05 7.17344591976e-05 0.259170264006 -0.0485920719802
314.5 0.0376773886383 0.460516393185 0.000174467699253 -0.00023311797122 6.32756054983e-05 -0.000190457009012 0.240486845374 -0.102008216083
314.704166667 0.359784990549 -0.133229926229 -5.15498541063e-05 4.79202899442e-05 6.25381508144e-05 0.000198938781978 0.163495510817 -0.150048315525
314.908333333 -0.120629221201 -0.421155303717 -0.000117844465422 1.47204273162e-05 -6.61726953695e-05 -0.000199996691663 0.11989992857 -0.196317985654
315.1125 -0.562194347382 -0.0266815684736 -0.000116235183668 -4.8771402362e-05 0.000152006410644 4.6622048103e-05 0.0550362989306 -0.238147825003
315.316666667 -0.13805373013 0.521634876728 3.19331447827e-05 3.93458176404e-05 1.26367367557e-05 8.30983208289e-06 0.0641817301512 -0.338936120272
315.520833333 0.382991522551 0.15900118649 5.26338735654e-05 -6.06319772487e-05 -0.000162198179169 -5.47876925339e-06 -0.0115660708398 -0.418944895267
315.725 0.13546192646 -0.35001668334 5.16551808687e-05 -5.55290607736e-05 4.47242564405e-05 8.44488968141e-05 -0.192115291953 -0.295003056526
315.929166667 -0.395857453346 -0.248727306724 5.07950380779e-06 -5.11339021614e-05 -7.3218747275e-05 3.50766895281e-05 -0.218924298882 -0.115615807474
316.133333333 -0.438590675592 0.309560209513 8.98196230992e-06 -0.000138216651976 2.28222688747e-05 3.39887337759e-05 -0.184114724398 0.0157199241221
316.3375 0.189779579639 0.453461945057 -0.000138710660394 -4.77842377222e-06 -8.41929249873e-06 2.96854177577e-05 -0.159998565912 0.0300707276911
316.541666667 0.312120825052 -0.133272349834 -7.12493783794e-05 -1.10297025913e-06 -8.13618953543e-06 -2.44882412517e-05 -0.128250032663 0.0170906037092
316.745833333 -0.188968762755 -0.348847836256 7.49109894969e-05 0.00010515141912 -1.25758897411e-05 -2.40853223659e-05 -0.0879608541727 0.0580449923873
316.95 -0.555174648762 0.240303039551 -6.80753146298e-05 0.000135397553095 6.51107984595e-06 -4.65194207209e-05 -0.07553845644 0.05156096071
317.154166667 0.121914193034 0.627203404903 -1.96978689928e-05 -1.83126430784e-05 4.68201324111e-06 -2.60769888882e-06 -0.068538941443 0.0524488613009
