!Created with skrf (http://scikit-rf.org).
# GHz S RI R 50.0 
!freq ReS11 ImS11 ReS21 ImS21 ReS12 ImS12 ReS22 ImS22
290.0 -0.0149033358321 0.155332669616 1.23113310337 -4.2323102951 -0.0133691811934 0.031095283106 -0.0288325659931 -0.0227505024523
290.204166667 0.0194146763533 0.324542760849 -5.47587585449 -0.431041717529 0.0138187054545 0.0405339896679 -0.0467381626368 -0.0146227171645
290.408333333 0.196983531117 0.0640484318137 0.210932269692 6.52496242523 0.0397795066237 0.0125786960125 -0.0497082360089 0.0161673109978
290.6125 0.137173816562 0.0636985376477 4.65483427048 -0.945553839207 0.0365287438035 -0.0165408235043 -0.0933717191219 0.0386423505843
290.816666667 -0.022501187399 -0.0372477695346 -1.78192067146 -2.80635809898 0.0184858553112 -0.0485876239836 -0.0286677386612 0.0863448157907
291.020833333 0.0111907795072 0.0890599712729 -1.05910027027 2.3261756897 -0.0163067635149 -0.0749995931983 0.00657217996195 0.143185764551
291.225 0.0801696702838 0.0596029907465 1.90076899529 -0.217938572168 -0.09396289289 -0.0427631177008 0.124684467912 0.11998437345
291.429166667 0.125210091472 -0.00839027576149 -1.26261925697 -1.42886269093 -0.127433717251 0.061637993902 0.175066336989 0.0759793072939
291.633333333 0.142783805728 -0.12194160372 -1.13127410412 1.1944103241 -0.0163315553218 0.175348550081 0.142974674702 -0.087213255465
291.8375 0.178803250194 -0.1339623034 1.05077958107 0.973834872246 0.200496330857 0.138030081987 0.0755557268858 -0.0462999455631
292.041666667 0.085311152041 -0.277059823275 0.807473063469 -0.706224262714 0.23758547008 -0.175041213632 0.017891978845 -0.0761564746499
292.245833333 -0.00983778014779 -0.345391899347 -0.633134961128 -0.625352025032 -0.127073571086 -0.345004588366 0.000434329238487 -0.032317429781
292.45 -0.333356708288 -0.245457679033 -0.309574902058 0.619512081146 -0.378575414419 -0.131487622857 0.0225107558072 -0.034690387547
292.654166667 -0.299652993679 -0.0742918625474 0.587182998657 -0.121090620756 -0.421251326799 0.0383344255388 -0.0324098467827 -0.0140452468768
292.858333333 -0.242637708783 0.0770085528493 -0.453673511744 -0.351345658302 -0.377130329609 0.192965388298 0.0677190274 0.0401984527707
293.0625 -0.117254666984 0.122161544859 0.0389878675342 0.628547549248 -0.214900150895 0.274704664946 0.100549824536 0.00365412258543
293.266666667 -0.00635080039501 0.124853283167 0.650312721729 -0.453021109104 0.010869207792 0.249235063791 0.178881138563 -0.0828110426664
293.470833333 0.0354307852685 0.127045273781 -0.681138157845 -0.472743690014 0.221189454198 0.115923240781 0.132799267769 -0.157707840204
293.675 0.0862598121166 0.0841572508216 -0.346554934978 0.735777378082 0.209942623973 -0.126989632845 -0.0276757851243 -0.266676485538
293.879166667 0.124653354287 -0.0139009030536 0.836724221706 0.109132900834 -0.0182731300592 -0.22671212256 -0.12733194232 -0.0873056799173
294.083333333 0.00958828814328 -0.00458293547854 -0.31237116456 -1.01491641998 -0.207221448421 -0.0953888073564 -0.179044529796 -0.0593039989471
294.2875 0.0247210543603 -0.0587953031063 -0.930003404617 0.617946922779 -0.257619440556 0.0322545990348 -0.156886160374 -0.0280803721398
294.491666667 0.00282947113737 0.157893896103 0.680183231831 0.512228131294 -0.264562547207 0.169265314937 -0.129987165332 -0.0325436256826
294.695833333 0.129416540265 0.0650623142719 0.247152611613 -0.786080241203 -0.393654733896 0.33906006813 -0.19123005867 -0.0561861842871
294.9 0.232983961701 0.0300617124885 -0.989824235439 0.251043319702 -0.550692260265 0.520917654037 -0.338055700064 0.0424985997379
295.104166667 0.1632399261 -0.0966891571879 0.757604181767 0.626280069351 -0.270163476467 0.889253020287 -0.142514467239 0.29305434227
295.308333333 0.1903629601 -0.0580072067678 -0.141136869788 -1.21712577343 0.18620583415 0.546316623688 0.0629516243935 0.00267045595683
295.5125 0.159513562918 -0.20280739665 -1.18575179577 1.28301405907 0.147968649864 0.354328423738 -0.10741596669 -0.0620681270957
295.716666667 0.166346117854 -0.223581209779 2.32153606415 0.781346142292 0.194259256124 0.209002137184 -0.100444890559 -0.0505742505193
295.920833333 0.167868763208 -0.347866952419 -0.303606808186 -3.14178752899 0.176019132137 0.0892447829247 -0.224327594042 0.0720064491034
296.125 0.0235125795007 -0.559584259987 -3.94103598595 2.64655900002 0.110902436078 0.0152663849294 -0.0841413736343 0.117412745953
296.329166667 -0.372560590506 -0.264871507883 5.60314178467 1.49637043476 0.0756572782993 -0.0175517629832 -0.0325778089464 0.142834097147
296.533333333 -0.547651171684 -0.0876108780503 -4.04168272018 -5.56589221954 0.0704128071666 -0.0403278134763 0.0227207001299 0.098071821034
296.7375 -0.496439188719 0.112933397293 -2.49737715721 8.64676380157 0.0761720985174 -0.06535512954 0.0737754106522 0.141973882914
296.941666667 -0.581267297268 0.0693353265524 9.48821926117 -1.37043261528 0.0558333136141 -0.0887418165803 0.127557113767 0.0738884881139
297.145833333 0.0787277072668 0.0761000439525 -4.68128633499 -6.12212657928 0.0245925392956 -0.10470020026 0.133867442608 0.0459877029061
297.35 -0.589906573296 -0.393691211939 -3.44963598251 5.78027439117 -0.0187196135521 -0.11721804738 0.12529475987 -0.0458573959768
297.554166667 -0.354410797358 0.118625238538 5.33380937576 1.3719137907 -0.0601801723242 -0.118538044393 0.0619278773665 -0.100244864821
297.758333333 -0.21914806962 -0.156995013356 -1.16737318039 -4.17287445068 -0.0808656215668 -0.138032183051 0.0113251218572 -0.0578875392675
297.9625 -0.204447820783 -0.234131529927 -1.47998678684 3.36010360718 -0.110235109925 -0.145924478769 -0.000274108169833 -0.0475879833102
298.166666667 -0.42973780632 -0.161026924849 3.62072730064 -0.63664996624 -0.175077810884 -0.109811261296 0.0128811998293 -0.00735630001873
298.370833333 -0.445264875889 -0.447167754173 -1.21502196789 -3.23743081093 -0.194385513663 -0.01715442352 0.0233269035816 -0.035891007632
298.575 -0.702700436115 0.0274657867849 -3.01033854485 1.03116834164 -0.121911786497 0.0869260281324 0.0687605366111 -0.0310665853322
298.779166667 -0.365884929895 0.355184584856 1.0909409523 2.78364443779 -0.0169224590063 0.129119500518 0.0447924919426 -0.0979861095548
298.983333333 0.0320475921035 0.425378978252 2.40153551102 -1.98811197281 0.0868225693703 0.10273680836 0.0527178160846 -0.0662390366197
299.1875 0.0890635997057 0.339106142521 -3.12878036499 -0.913253426552 0.146789893508 0.0390328727663 -0.00161372125149 -0.165040165186
299.391666667 0.356128126383 0.290343314409 1.7850549221 2.58588004112 0.177053004503 0.0192317292094 -0.051711037755 -0.166801869869
299.595833333 0.231619119644 0.186671689153 -0.0562712438405 -3.0048251152 0.179336935282 0.0521441064775 -0.15133780241 -0.161093190312
299.8 0.310090601444 0.182112336159 -1.48657476902 1.77073395252 0.173180684447 0.0875463560224 -0.215232878923 -0.105286978185
300.004166667 0.307431161404 0.0697179213166 1.61261832714 -0.870004057884 0.204393088818 0.117648229003 -0.243035703897 0.0941375941038
300.208333333 0.399052768946 -0.144180133939 -1.61960756779 0.0953099727631 0.192262753844 0.2028208673 -0.142775982618 0.1790843606
300.4125 0.101207077503 -0.172694712877 1.16424715519 0.6797773242 0.198474571109 0.284965455532 -0.028250079602 0.2316159904
300.616666667 0.0311288144439 -0.168495371938 -0.598748981953 -1.04076218605 0.212545022368 0.344253629446 0.0158559530973 0.196024104953
300.820833333 -0.0715164914727 -0.0242940243334 -0.0688514634967 1.30303955078 0.196422353387 0.367301464081 0.10101737082 0.17773938179
301.025 -0.00833062827587 0.0201804824173 1.01154458523 -1.24102437496 0.141662716866 0.402799218893 0.0575777515769 0.165568724275
301.229166667 0.117975108325 0.0442014709115 -1.45690143108 0.783269643784 0.00739055359736 0.35279238224 0.188482552767 0.161670073867
301.433333333 0.0631704479456 -0.0871100276709 1.6027930975 -0.168211385608 -0.139094904065 0.28210067749 0.123849853873 0.0520848892629
301.6375 0.0370937436819 -0.0348826013505 -1.34924590588 -0.752223134041 -0.226894304156 0.254732936621 0.167335093021 0.0161661412567
301.841666667 0.0448840335011 -0.0158017594367 0.437121331692 1.27719438076 -0.237563610077 0.255236625671 0.0149208996445 -0.0366413630545
302.045833333 0.10734116286 -0.0864397659898 0.620328366756 -0.95988214016 -0.162679806352 0.285635322332 0.0293582696468 0.0399962514639
302.25 -0.0316113829613 -0.0929788723588 -0.962147295475 -0.0485462583601 -0.0569731555879 0.353767156601 0.00905790459365 0.0824735313654
302.454166667 0.0223803352565 -0.129818066955 0.265282511711 0.684370577335 0.123692333698 0.372435450554 0.11916461587 0.0924842208624
302.658333333 -0.172546893358 -0.114100433886 0.496452659369 -0.430346637964 0.316911965609 0.26996460557 0.134900093079 -0.00261821923777
302.8625 -0.158591940999 0.0359998270869 -0.675896763802 -0.286017566919 0.488166421652 0.122462324798 0.122451364994 -0.0795034617186
303.066666667 -0.133063748479 0.0922587439418 -0.0573324151337 0.794801294804 0.654483139515 0.0192109309137 0.112188354135 -0.103379905224
303.270833333 -0.0325742997229 0.0402977839112 0.658603847027 -0.34077912569 0.767691612244 -0.10284679383 0.0464214608073 -0.154692769051
303.475 -0.0462232753634 0.127969637513 -0.831695377827 -0.411693364382 0.73261064291 -0.231416240335 0.0744835585356 -0.113880477846
303.679166667 0.0655665248632 -0.0335773080587 -0.0677957832813 1.25237417221 0.535479545593 -0.491741836071 0.00359635753557 -0.26525247097
303.883333333 -0.0797703787684 0.0288673378527 1.42156755924 -0.197858482599 0.145851776004 -0.595658302307 -0.0609043091536 -0.210648611188
304.0875 0.00557254254818 0.0557888299227 -0.270608991385 -1.64456760883 -0.237303450704 -0.429581701756 -0.220153480768 -0.260233104229
304.291666667 0.0595489367843 -0.00377939245664 -1.62235867977 0.440345138311 -0.383239984512 -0.121456742287 -0.224232047796 -0.0149754155427
304.495833333 -0.0570116974413 -0.0431916452944 0.568054676056 1.48497641087 -0.286605060101 0.112261801958 -0.119365401566 -0.0132830087095
304.7 -0.020495140925 0.0421540141106 1.32172620296 -0.687479317188 -0.189756989479 0.259889215231 -0.0766053274274 0.0723952129483
304.904166667 -0.0953979343176 0.0240628942847 -1.050573349 -1.31776869297 -0.097092628479 0.308676689863 0.0131595255807 0.0237486772239
305.108333333 -0.0189336724579 0.173107549548 -1.01682841778 1.51943182945 -0.0303305909038 0.278575718403 0.0422900021076 -0.0230712257326
305.3125 0.0615540780127 0.134496584535 1.96290588379 0.326834529638 0.026584085077 0.266934931278 -0.0304928217083 -0.0922738909721
305.516666667 0.19999037683 0.111385039985 -0.769304215908 -1.98522901535 0.0869125202298 0.244673892856 -0.0439826250076 -0.0048869010061
305.720833333 0.132860839367 -0.0725210309029 -1.82922208309 2.1390478611 0.135891243815 0.203845068812 -0.0392304547131 -0.0569950714707
305.925 0.193127840757 -0.0103881256655 3.56815171242 1.05226111412 0.154794067144 0.156384527683 -0.063506193459 -0.0271024182439
306.129166667 0.126107022166 -0.149909391999 -1.06596577168 -4.23671913147 0.145220980048 0.137363612652 -0.0850668773055 -0.0449963398278
306.333333333 0.1114282161 -0.0844994783401 -3.14437174797 3.20801687241 0.149696409702 0.076485529542 -0.0856708139181 -0.0128252226859
306.5375 0.100078172982 -0.131318449974 3.97511148453 2.89333343506 0.141478970647 -0.0136747621 -0.171471104026 0.0349975600839
306.741666667 0.121963635087 -0.177394926548 2.58988499641 -4.30869197845 0.100478172302 -0.0776696354151 -0.063218228519 0.187012091279
306.945833333 -0.0576951541007 -0.226833447814 -4.25487089157 -2.60660624504 0.0298589430749 -0.111550167203 0.0213401634246 0.143226608634
307.15 -0.0722947567701 -0.0337099246681 -2.90180325508 4.21142339706 -0.0479379370809 -0.0861468538642 0.127488806844 0.15244102478
307.354166667 -0.0236177761108 0.00184146664105 4.10112142563 4.03541994095 -0.0863134637475 -0.00511329807341 0.14934541285 0.061906427145
307.558333333 0.0461633726954 0.00375441205688 4.81056833267 -3.13166594505 -0.0652080252767 0.0607738606632 0.184607982635 0.00885959807783
307.7625 0.0268549192697 -0.0387407317758 -2.98598146439 -4.27726888657 -0.0111277587712 0.112934909761 0.0711413994431 -0.0822415053844
307.966666667 0.148101076484 -0.042618509382 -3.05250406265 2.99957704544 0.0310470126569 0.119543239474 0.0965218767524 -0.00282629136927
308.170833333 -0.0210174992681 -0.212931826711 3.16868376732 1.59652614594 0.0985247343779 0.107687294483 0.102801226079 -0.113504968584
308.375 -0.0631586611271 -0.066670447588 0.496761679649 -3.02605605125 0.172335371375 0.0540348291397 0.0219226628542 -0.116286464036
308.579166667 -0.0713751390576 -0.145377516747 -2.92922735214 0.348687231541 0.218414500356 -0.00164188223425 -0.0249507892877 -0.0892168134451
308.783333333 -0.0994588434696 -0.149128928781 0.987298548222 2.75019240379 0.234133422375 -0.05885482952 0.00812329910696 -0.0559685491025
308.9875 -0.209648326039 -0.173780322075 2.49025225639 -1.30253696442 0.190269947052 -0.133214250207 -0.0452259033918 -0.0384406223893
309.191666667 -0.172424226999 -0.110445812345 -1.30921161175 -2.30280303955 0.131211638451 -0.196581095457 0.0386447459459 0.0440378785133
309.395833333 -0.282597601414 -0.172188699245 -1.98251235485 1.26338374615 0.00696280319244 -0.243072882295 0.0801135376096 -0.0386669971049
309.6 -0.322700232267 0.107658304274 1.27780783176 1.68013656139 -0.150255069137 -0.205408096313 0.0854559913278 -0.0919613391161
309.804166667 -0.173231825233 0.141818270087 1.25339651108 -1.19720697403 -0.280579984188 -0.0812661126256 -0.0159872900695 -0.151069521904
310.008333333 -0.071743644774 0.206676200032 -1.13481366634 -0.67195057869 -0.33240750432 0.0861862450838 -0.0280067995191 -0.0911984071136
310.2125 -0.0148883983493 0.115455582738 -0.1574010849 1.12394809723 -0.360885798931 0.19844430685 -0.0947224423289 -0.13486880064
310.416666667 -0.0321456417441 0.122880160809 1.06075155735 0.034414164722 -0.326432198286 0.296389073133 -0.130648091435 -0.0806895047426
310.620833333 -0.0128322504461 0.0799413323402 -0.0355156622827 -0.840462863445 -0.164731070399 0.415611058474 -0.11090259999 -0.0808847919106
310.825 0.0106920832768 0.0970494672656 -0.642867863178 0.0993527173996 0.142739519477 0.415127754211 -0.113208472729 -0.0280742608011
311.029166667 0.0134338503703 0.06307438761 0.15412440896 0.441813498735 0.32762503624 0.329700261354 -0.138789519668 -0.00387405068614
311.233333333 0.0629435628653 0.0965728461742 0.409200072289 -0.26503059268 0.459586411715 0.158270075917 -0.110124468803 0.110304400325
311.4375 0.0435487702489 -0.02898587659 -0.443592935801 -0.356231004 0.437795072794 -0.0172688253224 -0.0545149222016 0.0957161411643
311.641666667 -0.0157899446785 0.0658948123455 -0.229202449322 0.609986722469 0.364260822535 -0.161293238401 -0.0492047965527 0.137307822704
311.845833333 0.0713591948152 0.0628404468298 0.837385952473 0.00370115390979 0.298900723457 -0.281286180019 0.0224824100733 0.101248160005
312.05 0.0859518274665 0.104705706239 -0.42497381568 -0.949505329132 0.211277380586 -0.292164772749 0.0353251136839 0.0879535675049
312.254166667 0.172436118126 0.0497433468699 -0.845804274082 0.877635657787 0.15430341661 -0.26171708107 0.0209172479808 0.0239499565214
312.458333333 0.187914639711 0.00483212526888 1.37464046478 0.674123585224 0.0761747285724 -0.231924146414 -0.0321229100227 0.0889728665352
312.6625 0.189239308238 -0.122096672654 0.568609416485 -1.622808218 -0.00164796598256 -0.25869166851 0.0510217137635 0.10120537132
312.866666667 0.0813223049045 -0.129611968994 -1.72368431091 -0.530491769314 -0.150443524122 -0.265430092812 0.0308703426272 0.0928817242384
313.070833333 0.0924294739962 -0.152516499162 -0.41668048501 1.61917304993 -0.337454557419 -0.197783470154 0.0716228410602 0.0624627694488
313.275 0.0755129605532 -0.160320863128 1.3750718832 0.202215060592 -0.5218501091 -0.0223525054753 0.0308129936457 0.0981200486422
313.479166667 0.0551696494222 -0.242777958512 0.0669322162867 -1.01016438007 -0.57779943943 0.231751441956 0.106508605182 0.0461259372532
313.683333333 -0.068648122251 -0.166878953576 -0.766098916531 0.0509796254337 -0.56180536747 0.519572019577 -0.00155133532826 0.0688246637583
313.8875 -0.0286271777004 -0.172469779849 0.113773860037 0.619241535664 -0.449236810207 0.839414775372 0.145906940103 0.189505159855
314.091666667 -0.205450430512 -0.162430003285 0.563428461552 -0.113225586712 0.126701891422 1.30431044102 0.260456115007 0.0298018716276
314.295833333 -0.165727719665 0.0102342199534 -0.0432229489088 -0.553136110306 1.02984714508 0.986653089523 0.295482456684 -0.0313209332526
314.5 -0.125323966146 0.0326597653329 -0.514752268791 -0.0661089345813 1.40402626991 0.133337691426 0.245668575168 -0.147454172373
314.704166667 -0.0263458527625 0.0461309626698 -0.107588455081 0.488081872463 1.00606882572 -0.699493706226 0.171762794256 -0.138086125255
314.908333333 -0.0811431258917 -0.0181987099349 0.527843236923 0.151340052485 0.539875268936 -1.00163459778 0.0957443639636 -0.257147789001
315.1125 -0.0394197143614 0.0553331375122 0.219436168671 -0.641440808773 -0.0717860385776 -1.06370556355 -0.0130137717351 -0.180816784501
315.316666667 -0.0589849054813 -0.042810536921 -0.817476391792 -0.49253949523 -0.510333418846 -0.884858071804 0.11445107311 -0.271514445543
315.520833333 -0.0848986580968 0.0602215230465 -1.02252793312 0.744609832764 -0.824646294117 -0.212978944182 0.0290964357555 -0.387778013945
315.725 -0.0196885149926 0.0163000375032 0.397841304541 1.27332353592 -0.406305283308 0.42593345046 -0.146806836128 -0.345963031054
315.929166667 -0.0469781570137 0.0453377254307 1.55199122429 0.296862453222 0.135878935456 0.38951125741 -0.243078663945 -0.131940573454
316.133333333 -0.00274639739655 -0.0188262853771 0.862457633018 -1.28547012806 0.404849231243 0.0531914830208 -0.203697264194 -0.00181005208287
316.3375 -0.131470739841 -0.0100382920355 -0.78922945261 -1.34906506538 0.33699914813 -0.262357085943 -0.200606718659 0.0752566680312
316.541666667 -0.0953241363168 0.0764908567071 -1.57211947441 -0.343211233616 -0.0125289568678 -0.351288735867 -0.0978734344244 0.0406189598143
316.745833333 -0.0764025896788 0.0913811996579 -1.02622115612 1.44596159458 -0.29658010602 -0.11047488451 -0.0904184356332 0.0768928155303
316.95 -0.0678309798241 0.1409727633 0.418888002634 1.99335324764 -0.202914714813 0.225386977196 -0.00149143324234 0.0331923626363
317.154166667 0.0244182236493 0.207942679524 1.73777556419 1.21034038067 0.170505732298 0.210147991776 -0.124853089452 -0.017494963482
317.358333333 0.18023660779 0.10003375262 2.30945444107 -0.27331662178 0.259390681982 -0.100851647556 -0.0878391340375 0.118022300303
317.5625 0.0544730350375 0.0359923243523 1.50146281719 -1.85539078712 -0.0282419715077 -0.258356750011 -0.0503806658089 0.0373873449862
317.766666667 0.114943765104 0.0892313420773 -0.575455069542 -2.22209858894 -0.243136778474 -0.0307855959982 -0.0445584468544 0.134176343679
317.970833333 0.0957608893514 -0.0167002975941 -1.96865284443 -0.384755343199 -0.131238877773 0.233726963401 0.0290313791484 0.0647469833493
318.175 0.125146478415 0.00307877548039 -0.936730623245 1.4528850317 0.143001660705 0.279974639416 -0.0110754044726 0.0820462033153
318.379166667 0.099328532815 -0.119223207235 0.969033241272 1.22163844109 0.349768310785 0.0415617376566 0.025994727388 0.0657354444265
318.583333333 0.0399645678699 -0.0730374082923 1.38848507404 -0.467423409224 0.273646682501 -0.270921289921 0.00271107838489 0.115344636142
318.7875 0.0380520559847 -0.176569670439 0.15296150744 -1.43964207172 0.0282157510519 -0.429894924164 0.0735090970993 0.138256281614
318.991666667 -0.108392156661 -0.0840978398919 -1.27982127666 -0.481854379177 -0.242184236646 -0.368433594704 0.119119003415 0.106778346002
