!Created with skrf (http://scikit-rf.org).
# GHz S RI R 50.0 
!freq ReS11 ImS11 ReS21 ImS21 ReS12 ImS12 ReS22 ImS22
290.0 -0.0347021631896 0.213754072785 2.82696580887 -3.42384243011 0.00050130544696 0.0330409258604 -0.00889328401536 -0.0127153098583
290.204166667 0.175571292639 0.289354145527 -4.2607011795 -2.77045726776 0.0249664541334 0.0239834766835 -0.0300066936761 -0.0275476966053
290.408333333 0.132904157043 0.0920750200748 -2.51050448418 6.03566741943 0.0372982136905 -0.00197535078041 -0.0591708533466 -0.0158494822681
290.6125 0.156528875232 -0.00476973317564 4.36105966568 1.40666735172 0.0289217159152 -0.0322276204824 -0.10237942636 0.0547719970345
290.816666667 -0.0341653898358 0.00617562793195 -0.750244736671 -3.10898160934 -0.00860838219523 -0.0472349599004 -0.0461019799113 0.0865719988942
291.020833333 0.0248851142824 0.0694906711578 -1.89527630806 1.82633161545 -0.0655603632331 -0.050743278116 0.0380577780306 0.174291417003
291.225 0.0840762406588 0.0341779105365 1.9723072052 0.28248912096 -0.0953828915954 0.00721609639004 0.130228325725 0.0911876261234
291.429166667 0.144152402878 -0.031998809427 -0.819056510925 -1.96054637432 -0.0867337882519 0.104287736118 0.189588800073 0.0364764258265
291.633333333 0.0794096589088 -0.0821050107479 -1.41249787807 0.999853789806 0.063010185957 0.167262017727 0.0850869342685 -0.0657474175096
291.8375 0.181712597609 -0.157613292336 0.641859292984 1.05368471146 0.240613177419 0.0267210565507 0.0982507020235 -0.036754578352
292.041666667 0.111690245569 -0.249251142144 0.953047215939 -0.385664820671 0.142034098506 -0.292872309685 0.0270684640855 -0.0632687285542
292.245833333 -0.0638477578759 -0.407374471426 -0.429225683212 -0.74325889349 -0.25979039073 -0.229061111808 0.0379667580128 -0.0569799914956
292.45 -0.32532414794 -0.19065541029 -0.460324019194 0.515663206577 -0.379599899054 0.0781782642007 -0.0131153073162 -0.0766163095832
292.654166667 -0.310851752758 -0.0806545317173 0.587418735027 0.0390005111694 -0.34336194396 0.242813527584 -0.0533648915589 0.0278955269605
292.858333333 -0.217955097556 0.0789923369884 -0.369181931019 -0.429027795792 -0.228700309992 0.35801461339 0.0743783563375 0.0408191047609
293.0625 -0.117993883789 0.11572162807 -0.0973229557276 0.604221820831 -0.0395977348089 0.344631910324 0.137216582894 0.0221357923001
293.266666667 -0.0300755668432 0.111539848149 0.703704178333 -0.262146294117 0.133781328797 0.203844293952 0.181010261178 -0.115968301892
293.470833333 0.0564333051443 0.147908583283 -0.546747505665 -0.587573885918 0.240891426802 0.000394346512621 0.126586318016 -0.184335812926
293.675 0.122749850154 0.0826367288828 -0.463513195515 0.699151694775 0.119350172579 -0.224341794848 -0.0839449465275 -0.227839440107
293.879166667 0.0946068093181 -0.051203597337 0.72539550066 0.223038926721 -0.11922801286 -0.18596342206 -0.0857880711555 -0.0871236100793
294.083333333 0.0425224639475 -0.0206980369985 -0.0745285898447 -0.983063101768 -0.223871067166 0.0176307782531 -0.176941633224 -0.0517356954515
294.2875 -0.0633917227387 -0.0288126710802 -0.935140430927 0.440390259027 -0.186177164316 0.144884005189 -0.149249225855 -0.051677454263
294.491666667 0.0740746706724 0.163781017065 0.571313679218 0.594999432564 -0.138019427657 0.256046146154 -0.154053837061 -0.0379224978387
294.695833333 0.141534879804 0.0415687933564 0.450399190187 -0.660985410213 -0.166008874774 0.440413028002 -0.260428071022 -0.0628975480795
294.9 0.203549951315 -0.0223707426339 -0.859224617481 0.229595273733 -0.242576777935 0.836407124996 -0.406031787395 0.129560500383
295.104166667 0.11594080925 -0.0505955144763 0.713396608829 0.698447227478 0.291880607605 0.843997895718 -0.0537347644567 0.242975994945
295.308333333 0.229174003005 -0.0994953289628 0.0243171211332 -1.2546697855 0.415499955416 0.404712378979 0.00114450242836 -0.0217913724482
295.5125 0.140545830131 -0.120926856995 -1.34245991707 1.18961167336 0.339448750019 0.23781336844 -0.115252695978 -0.048571921885
295.716666667 0.222268000245 -0.212153956294 2.13877654076 0.976517856121 0.25276234746 0.108976468444 -0.177295267582 -0.0517521612346
295.920833333 0.190319448709 -0.401812762022 -0.0540165454149 -3.33617091179 0.190164983273 -0.0136973010376 -0.191431596875 0.134292542934
296.125 -0.109575860202 -0.52674394846 -4.4276638031 1.9697548151 0.101420305669 -0.0428048558533 -0.0806147530675 0.102809943259
296.329166667 -0.292113929987 -0.275620907545 5.46077346802 2.10771942139 0.053633954376 -0.0542364791036 -0.0144313694909 0.120654530823
296.533333333 -0.507409393787 0.00612429948524 -3.57842302322 -5.41959571838 0.0374348014593 -0.071708008647 -0.0197070520371 0.0999751240015
296.7375 -0.425852060318 0.0404757000506 -3.16083860397 8.02816867828 0.0282823033631 -0.0962187573314 0.0824242010713 0.146494537592
296.941666667 -0.432177603245 0.230716854334 9.49908828735 -0.885190784931 0.000872300472111 -0.102910734713 0.123079173267 0.103208839893
297.145833333 -0.108762234449 -0.322490751743 -4.13025903702 -6.2946972847 -0.0312973745167 -0.100926153362 0.164166241884 0.0386644974351
297.35 -0.7710698843 0.0568220168352 -3.60663461685 5.30263233185 -0.0742255300283 -0.0917731001973 0.123515345156 -0.069836050272
297.554166667 -0.129027932882 0.090877994895 5.18953371048 1.49554669857 -0.111725442111 -0.0709409490228 0.0342018269002 -0.0948519706726
297.758333333 -0.23136305809 -0.131363540888 -1.03757119179 -4.29080343246 -0.137167111039 -0.0777256265283 0.0163659658283 -0.0490562692285
297.9625 -0.215679347515 -0.229579150677 -1.52961647511 3.37560248375 -0.167694553733 -0.0666373223066 -0.00403452338651 -0.0308021456003
298.166666667 -0.234220698476 -0.297404944897 3.68269252777 -0.405012249947 -0.199756488204 -0.00412979256362 0.0350491069257 -0.021392390132
298.370833333 -0.651899695396 -0.55271011591 -1.06179022789 -3.14297842979 -0.171778008342 0.0802650526166 0.0230287294835 -0.0379278361797
298.575 -0.639173030853 0.102074831724 -2.99384975433 0.918559372425 -0.0604607798159 0.135362267494 0.0593203417957 -0.0667870789766
298.779166667 -0.322862833738 0.379058688879 1.09800374508 2.72566914558 0.0530749335885 0.117319628596 0.00448126113042 -0.0631051883101
298.983333333 0.0187280196697 0.345888435841 2.35373783112 -1.97450888157 0.12822252512 0.0417950637639 0.077595718205 -0.0652147904038
299.1875 0.0999834388494 0.404046207666 -3.12055754662 -0.802236437798 0.145405143499 -0.0428620092571 0.00900656636804 -0.140891164541
299.391666667 0.301838219166 0.202094987035 1.8184221983 2.49718594551 0.159315943718 -0.0769379213452 -0.0343594588339 -0.207348302007
299.595833333 0.227382823825 0.300118654966 -0.111386671662 -2.94046592712 0.178436800838 -0.048787612468 -0.171087384224 -0.179955795407
299.8 0.330932527781 0.177540108562 -1.4115332365 1.80368220806 0.191402629018 -0.0164855718613 -0.253652334213 -0.0820027962327
300.004166667 0.380874097347 0.0419695451856 1.55013120174 -0.936144411564 0.234320372343 -0.00616980204359 -0.216051131487 0.106520973146
300.208333333 0.294111043215 -0.206486910582 -1.58894252777 0.158907905221 0.268109828234 0.0699943378568 -0.127071559429 0.183058306575
300.4125 0.12744218111 -0.122866764665 1.18669998646 0.60664254427 0.315161913633 0.133720979095 -0.0205526761711 0.195265755057
300.616666667 -0.0221701730043 -0.165254488587 -0.658802032471 -0.986440181732 0.356824278831 0.174297958612 -0.0037609259598 0.196425721049
300.820833333 -0.0302731208503 0.00573912495747 0.0374292246997 1.27794480324 0.354087740183 0.204665765166 0.0549567528069 0.16977006197
301.025 0.0146982157603 0.0410752557218 0.883109807968 -1.29435884953 0.327288717031 0.258403420448 0.0857195779681 0.249381572008
301.229166667 0.125790446997 -0.0330183506012 -1.34614622593 0.891883730888 0.187684252858 0.292135864496 0.220736667514 0.120975375175
301.433333333 0.00729886488989 -0.0523460246623 1.53471803665 -0.3287127316 0.0289171300828 0.304966211319 0.153047218919 0.0673083513975
301.6375 0.0544274263084 -0.00676029967144 -1.40459489822 -0.582160651684 -0.0573819540441 0.332390338182 0.142692685127 -0.069078989327
301.841666667 0.0833386778831 -0.0031322313007 0.583453655243 1.187977314 -0.064669303596 0.336325079203 -0.0192570257932 0.00916712731123
302.045833333 0.077740304172 -0.106858499348 0.486032813787 -1.00203871727 0.0116364294663 0.324220597744 0.0142943998799 0.0496110022068
302.25 0.0326055511832 -0.0754772722721 -0.941748023033 0.0928404778242 0.138956442475 0.323722600937 0.0454258285463 0.124826744199
302.454166667 -0.0330748148263 -0.192282736301 0.347655117512 0.627981960773 0.29516851902 0.250170856714 0.143493562937 0.0556751266122
302.658333333 -0.174744531512 -0.0499188937247 0.413304269314 -0.495540708303 0.404764384031 0.063535772264 0.120481304824 -0.0223380792886
302.8625 -0.127465069294 0.0183208044618 -0.699643671513 -0.17916610837 0.472515285015 -0.149699285626 0.0962615683675 -0.0729699805379
303.066666667 -0.105604618788 0.0640542656183 0.0867207869887 0.780122101307 0.555074572563 -0.323517173529 0.0981993600726 -0.0885469764471
303.270833333 -0.0887586697936 0.0296816844493 0.578427135944 -0.439387947321 0.591610133648 -0.484781622887 0.0659931004047 -0.0971544608474
303.475 0.0206120368093 0.112412646413 -0.875852942467 -0.244663238525 0.477310180664 -0.572608172894 0.132137566805 -0.156325638294
303.679166667 -0.0475635789335 -0.0511904470623 0.141957700253 1.21460080147 0.191839247942 -0.687106311321 -0.00996818207204 -0.282053172588
303.883333333 -0.0415474250913 0.098891094327 1.33382737637 -0.443874031305 -0.187058106065 -0.570084154606 -0.086128115654 -0.287236839533
304.0875 0.0363929904997 0.0417667329311 -0.552589178085 -1.54317605495 -0.425154000521 -0.23870909214 -0.316541463137 -0.177430942655
304.291666667 0.0349689684808 -0.0529010593891 -1.49439382553 0.73073297739 -0.383553922176 0.0950326994061 -0.16679930687 0.0143408728763
304.495833333 -0.0652057304978 0.00269292877056 0.842399954796 1.32959413528 -0.180230334401 0.238941624761 -0.125807285309 0.015584230423
304.7 -0.0190417114645 0.00154760095757 1.13268065453 -0.926124751568 -0.019621424377 0.314711987972 -0.00912605691701 0.0613845586777
304.904166667 -0.121306285262 0.0960823297501 -1.26120042801 -1.05302524567 0.0828655958176 0.305438369513 0.0171158984303 -0.0226899478585
305.108333333 0.0387326851487 0.159138247371 -0.673768818378 1.67107999325 0.122954398394 0.247497662902 0.00422581518069 -0.070349380374
305.3125 0.0734413042665 0.136799544096 1.95862925053 -0.112603135407 0.165934324265 0.208385646343 -0.0816273465753 -0.0376618988812
305.516666667 0.189249888062 0.0413565710187 -1.18528425694 -1.73985898495 0.20273257792 0.159221559763 -0.00711528863758 0.00586976204067
305.720833333 0.0965546071529 0.0140837440267 -1.2873955965 2.46835803986 0.222762182355 0.0995643213391 -0.0386336036026 -0.0415933467448
305.925 0.250188022852 -0.0518073253334 3.66283583641 0.163051858544 0.211964547634 0.0504978783429 -0.0239557381719 -0.0404950119555
306.129166667 0.121180959046 -0.102942869067 -2.00238656998 -3.79143381119 0.192994847894 0.0406801663339 -0.0779630616307 -0.0700028985739
306.333333333 0.158925369382 -0.112245365977 -2.31257200241 3.7491300106 0.165235236287 -0.0139855798334 -0.125687435269 -0.0578392036259
306.5375 0.115846730769 -0.1496437639 4.45897626877 1.86147761345 0.109631627798 -0.0858392566442 -0.198195070028 0.112190030515
306.741666667 0.0831541791558 -0.25237518549 1.52404844761 -4.76364469528 0.0431758016348 -0.116955511272 -0.0179245360196 0.176126807928
306.945833333 -0.112441830337 -0.149378612638 -4.69719219208 -1.42681407928 -0.0341447256505 -0.106485038996 0.0252619255334 0.148504957557
307.15 -0.0287755839527 -0.0255120489746 -1.73221766949 4.74489927292 -0.086491599679 -0.0445636324584 0.137053862214 0.111061386764
307.354166667 -0.0229879617691 -0.0016944904346 4.94137907028 2.81656551361 -0.0758958309889 0.0427682697773 0.12878189981 0.0656749457121
307.558333333 0.0351303443313 -0.01100788638 3.73944234848 -4.24352216721 -0.0224741529673 0.0849606320262 0.147747009993 -0.0155814634636
307.7625 0.0552408471704 -0.00134489580523 -4.01255750656 -3.22538733482 0.0518486946821 0.0981389731169 0.0669101700187 0.00668911542743
307.966666667 0.134185940027 -0.132475912571 -2.05481314659 3.67350673676 0.0886936709285 0.0811177194118 0.174342751503 -0.0331773385406
308.170833333 -0.08040291816 -0.126176059246 3.46762371063 0.595163822174 0.141457349062 0.0346523746848 0.0820529013872 -0.145636439323
308.375 0.00206532678567 -0.0851617455482 -0.409532278776 -3.02556490898 0.172538325191 -0.0499200932682 0.00635701464489 -0.128885924816
308.579166667 -0.0869454666972 -0.145614057779 -2.66626691818 1.2057557106 0.181473076344 -0.119227036834 -0.0344989933074 -0.0824723169208
308.783333333 -0.103595629334 -0.180429652333 1.76980316639 2.26972436905 0.16251821816 -0.173356980085 -0.0292656198144 -0.0639331936836
308.9875 -0.203422084451 -0.132501155138 1.94773960114 -2.004165411 0.0839273408055 -0.212224811316 -0.0379400551319 0.0346778072417
309.191666667 -0.166576847434 -0.178141400218 -1.93226194382 -1.74290406704 0.000231099140365 -0.230578988791 0.0969039201736 0.0194958206266
309.395833333 -0.359356045723 -0.0983297675848 -1.4804008007 1.79249942303 -0.127511814237 -0.202832758427 0.0819420218468 -0.0614127442241
309.6 -0.236651286483 0.118421696126 1.73733603954 1.16834867001 -0.236995115876 -0.0884201079607 0.0560941249132 -0.130468532443
309.804166667 -0.189769804478 0.136521607637 0.774402797222 -1.52441644669 -0.276604801416 0.0850311219692 -0.0399317592382 -0.103873856366
310.008333333 -0.0446545518935 0.177620887756 -1.28111970425 -0.250928759575 -0.226784676313 0.251992285252 -0.0156729277223 -0.103177979589
310.2125 -0.0574973449111 0.120643980801 0.232951641083 1.09423148632 -0.187571212649 0.360568702221 -0.100675992668 -0.0950983166695
310.416666667 -0.0175376292318 0.124443560839 0.996313273907 -0.330619126558 -0.104149803519 0.422092705965 -0.0697674751282 -0.0889512225986
310.620833333 -0.0275863111019 0.0920509845018 -0.317889392376 -0.766130983829 0.0922358259559 0.429513305426 -0.105665832758 -0.114308588207
310.825 0.0250448379666 0.0926288068295 -0.562190413475 0.316210180521 0.340916514397 0.2664706707 -0.146720185876 -0.0636684522033
311.029166667 0.0161705631763 0.0807787626982 0.299217194319 0.348436385393 0.450052767992 0.089179597795 -0.163196280599 0.0429845526814
311.233333333 0.0935543850064 0.0458494871855 0.28651291132 -0.392790973186 0.465328335762 -0.121890135109 -0.0718440115452 0.109173841774
311.4375 -0.0186832547188 -0.0108671700582 -0.534248113632 -0.162901237607 0.347951114178 -0.256959378719 -0.0747622847557 0.0999913588166
311.641666667 0.0283661913127 0.0783716514707 0.0137412054464 0.647992014885 0.211049288511 -0.333294332027 -0.00889583397657 0.138355046511
311.845833333 0.0366644635797 0.0525494962931 0.761801958084 -0.313633263111 0.0897131189704 -0.395103126764 0.0163286197931 0.0734118893743
312.05 0.112396411598 0.112332135439 -0.751023054123 -0.697395145893 0.0112399542704 -0.355139672756 0.0186595004052 0.0624493286014
312.254166667 0.158398583531 0.0422316417098 -0.432954549789 1.12595999241 -0.0213782601058 -0.298259496689 -0.0368475280702 0.0540762990713
312.458333333 0.197304919362 -0.0134323183447 1.49907195568 0.0629043951631 -0.0655701085925 -0.229242697358 0.0159012638032 0.135292261839
312.6625 0.136264741421 -0.113331094384 -0.133663341403 -1.70084369183 -0.147732451558 -0.209284424782 0.0607820600271 0.0781238526106
312.866666667 0.108871020377 -0.0886401683092 -1.75827598572 0.225983560085 -0.272164672613 -0.131801143289 0.0650112256408 0.0917143374681
313.070833333 0.105533614755 -0.151243656874 0.298084199429 1.62515962124 -0.386252731085 0.0277776811272 0.0516120456159 0.031337570399
313.275 0.114320680499 -0.188190177083 1.30476784706 -0.404521912336 -0.435446977615 0.272381067276 0.0509518310428 0.0799382403493
313.479166667 0.00398933142424 -0.244901686907 -0.36588126421 -0.936385810375 -0.343798071146 0.508700370789 0.0160295218229 0.0217783413827
313.683333333 -0.0227164197713 -0.145739600062 -0.652917325497 0.379214137793 -0.156489089131 0.735325276852 0.0189385414124 0.195124089718
313.8875 -0.0720998942852 -0.226316988468 0.368514180183 0.502029538155 0.0955164209008 0.93126475811 0.230040118098 0.143457725644
314.091666667 -0.21421186626 -0.0774174928665 0.448320150375 -0.348516881466 0.834952712059 0.995176613331 0.248112231493 0.0188734643161
314.295833333 -0.12042696774 -0.0132322059944 -0.288566768169 -0.467616140842 1.39396846294 0.219183951616 0.301235228777 -0.0909743756056
314.5 -0.107769660652 0.0338295586407 -0.48455375433 0.174657732248 1.21378159523 -0.683753967285 0.195309862494 -0.136114791036
314.704166667 -0.0459095686674 -0.00435091042891 0.128869026899 0.475288629532 0.417408257723 -1.12979471684 0.161771684885 -0.153067603707
314.908333333 -0.0965484604239 0.0296074543148 0.533886134624 -0.11450458318 -0.128559783101 -1.1204880476 0.0429625362158 -0.192350775003
315.1125 -0.00986330397427 0.00373500562273 -0.108125582337 -0.658513307571 -0.664134740829 -0.812922477722 0.0929018259048 -0.149134352803
315.316666667 -0.114744290709 -0.00751046836376 -0.938164293766 -0.0430488213897 -0.91175287962 -0.430118173361 0.149803712964 -0.354385972023
315.520833333 -0.0298830866814 0.0637786313891 -0.537230849266 1.13321006298 -0.784427642822 0.294502496719 0.0364909507334 -0.446067243814
315.725 -0.0372399762273 0.00463061593473 0.958227157593 0.907722294331 -0.0808197557926 0.574619472027 -0.223071470857 -0.367825418711
315.929166667 -0.0122359655797 0.0287671126425 1.47860980034 -0.492570221424 0.334174066782 0.239411458373 -0.252921640873 -0.105893418193
316.133333333 -0.0651163458824 -0.0627004429698 0.107105471194 -1.52904713154 0.358318448067 -0.184187754989 -0.21707868576 0.0364366881549
316.3375 -0.132976651192 0.0438135713339 -1.34230172634 -0.770172715187 0.121664099395 -0.40223518014 -0.132271170616 0.0970398485661
316.541666667 -0.0753829106688 0.0575386844575 -1.50982153416 0.496425330639 -0.213400676847 -0.274456292391 -0.0876977369189 0.00732863880694
316.745833333 -0.0995522662997 0.0873340293765 -0.14647141099 1.75168848038 -0.304985195398 0.0809310749173 -0.0601477697492 0.0610272027552
316.95 -0.0755244791508 0.170759558678 1.35000801086 1.49021828175 -0.0350384376943 0.294145196676 -0.0681949332356 -0.0345141887665
317.154166667 0.0857637822628 0.179637685418 2.07841014862 0.153375715017 0.258756041527 0.06823027879 -0.161247625947 0.0761265009642
317.358333333 0.0946979001164 0.0441398881376 1.82882642746 -1.39974534512 0.155814439058 -0.230854421854 -0.0315582714975 0.101571291685
317.5625 0.0365445204079 0.127166897058 0.319515556097 -2.34610581398 -0.167359277606 -0.186361595988 -0.080908767879 0.0733554586768
317.766666667 0.144956573844 0.0582572892308 -1.6519472599 -1.5623332262 -0.213088050485 0.121133774519 0.0305168554187 0.113150388002
317.970833333 0.0847501158714 0.0211929604411 -1.84895265102 0.717701017857 0.0261755231768 0.265825182199 -0.00920083653182 0.0233610123396
318.175 0.152878254652 -0.0300369858742 -0.0101852733642 1.70267033577 0.272769510746 0.139897421002 -0.0194519460201 0.0795881226659
318.379166667 0.0662440061569 -0.0929264575243 1.47267341614 0.498060464859 0.302778303623 -0.174376800656 -0.0197787024081 0.0859331861138
318.583333333 0.0853542089462 -0.102123208344 0.891088247299 -1.1222294569 0.0618303529918 -0.376211732626 0.031710498035 0.163263812661
318.7875 -0.0405544154346 -0.173471167684 -0.665628015995 -1.27317297459 -0.225667849183 -0.360595494509 0.102773323655 0.1349709481
318.991666667 -0.0538776963949 -0.0133492732421 -1.31622552872 0.303136110306 -0.406881332397 -0.153237551451 0.145612165332 0.087392449379
