!Created with skrf (http://scikit-rf.org).
# GHz S RI R 50.0 
!freq ReS11 ImS11 ReS21 ImS21 ReS12 ImS12 ReS22 ImS22
290.0 -3.02833323076e-05 0.243728071451 -1.29665124416 3.32147836685 -0.0249340031296 -0.0191659592092 -0.00635005859658 -0.040464412421
290.204166667 0.114821203053 0.140248969197 3.99612236023 -0.700517177582 -0.03021065332 0.00617432501167 -0.0426783375442 -0.0308940391988
290.408333333 0.119924604893 0.162812143564 -2.96428251266 -4.52422380447 -0.000717144750524 0.0373094007373 -0.0908123999834 0.0113198468462
290.6125 0.0444588176906 0.0152011318132 -2.03058505058 3.18106937408 0.0205472670496 0.0201187487692 -0.0818879082799 0.0515065826476
290.816666667 0.0610893890262 -0.00761734694242 2.54398608208 -0.451059401035 0.0385548919439 -0.0241376720369 -0.0396035760641 0.107149414718
291.020833333 0.00143483630382 0.0312829427421 -1.53805315495 -1.22943091393 0.00275938189588 -0.0679862871766 0.0221118349582 0.117764785886
291.225 0.0568533167243 0.0562691725791 0.215210199356 1.57828867435 -0.0457582622766 -0.062658034265 0.118573457003 0.104121685028
291.429166667 0.126764565706 0.0219046045095 0.70645493269 -1.26128399372 -0.100579343736 0.0261806752533 0.144718453288 0.0531909093261
291.633333333 0.150156885386 -0.131846681237 -1.25572693348 0.0638497397304 0.00864354707301 0.14025990665 0.125991269946 -0.0490097664297
291.8375 0.19327968359 -0.18841946125 0.235629916191 1.06824302673 0.187747806311 0.00133559841197 0.102587908506 -0.0484998598695
292.041666667 0.10216575861 -0.275218427181 0.787035226822 -0.255952656269 0.0333003550768 -0.231129020452 0.0301383379847 -0.0754843205214
292.245833333 -0.134473711252 -0.355755627155 -0.450510680676 -0.479354262352 -0.250556319952 -0.054974514991 0.00825500953943 -0.0653303787112
292.45 -0.24225717783 -0.190580144525 -0.129390075803 0.536244511604 -0.182440549135 0.228921413422 -0.0354414358735 -0.0359470024705
292.654166667 -0.302693903446 -0.0734213888645 0.361365646124 -0.290769249201 0.0298899300396 0.306780427694 0.0106759788468 0.0311811361462
292.858333333 -0.225945964456 0.0309948846698 -0.450256735086 0.0408918894827 0.203419968486 0.221608534455 0.0496580526233 0.033188637346
293.0625 -0.140132158995 0.121376648545 0.426794320345 0.222926214337 0.239784792066 0.03961385414 0.144201517105 -0.0194416213781
293.266666667 -0.0172475073487 0.167396515608 -0.182061001658 -0.541233837605 0.126222699881 -0.120326153934 0.155024886131 -0.0773955434561
293.470833333 0.0748895406723 0.104145355523 -0.393340945244 0.493074536324 -0.0757204145193 -0.159953758121 0.0766891166568 -0.178283780813
293.675 0.0918761715293 0.0486893989146 0.609215855598 0.127847224474 -0.16338416934 0.0244262889028 -0.00350486231036 -0.223922938108
293.879166667 0.0860339850187 -0.00909926090389 -0.234358072281 -0.567949295044 -0.0194881521165 0.147864729166 -0.107589073479 -0.10282355547
294.083333333 0.0215712375939 0.0134321581572 -0.298831492662 0.660720765591 0.127871915698 0.0393529236317 -0.176108673215 -0.0616537183523
294.2875 -0.00545784784481 -0.0322021432221 0.821125209332 0.060531526804 0.125213637948 -0.088924460113 -0.161525979638 -0.0623356997967
294.491666667 0.0757195577025 0.104054801166 -0.384366065264 -0.556223392487 0.0329947955906 -0.18929669261 -0.130966693163 -0.0250556822866
294.695833333 0.110289052129 0.0459453575313 -0.230083927512 0.652694702148 -0.0941836535931 -0.329193502665 -0.233191072941 -0.0174779463559
294.9 0.172232270241 -0.00577660836279 0.646883010864 -0.360034406185 -0.317313551903 -0.456779330969 -0.265416383743 0.038872204721
295.104166667 0.199532717466 0.00516652176157 -0.78103774786 -0.0661774501204 -0.640255153179 -0.0743007138371 -0.134976029396 0.207096159458
295.308333333 0.194879561663 -0.0881877318025 0.736444830894 0.564607977867 -0.300276428461 0.195244446397 -0.00422487640753 0.0239399578422
295.5125 0.230866298079 -0.164920374751 -0.442048043013 -1.30711436272 -0.194178700447 0.197567343712 -0.0892069414258 -0.0810377374291
295.716666667 0.163962364197 -0.280444204807 -1.113260746 1.50706958771 -0.0531893968582 0.185170054436 -0.156724601984 0.0241462755948
295.920833333 0.0345973260701 -0.335363149643 2.53467679024 -0.102963604033 0.053680755198 0.126168325543 -0.169997647405 0.0436408035457
296.125 0.00128886499442 -0.405454277992 -2.63848471642 -2.64020252228 0.0658618286252 0.0391672067344 -0.0888312086463 0.113250881433
296.329166667 -0.291173458099 -0.354825288057 0.512820363045 4.50273275375 0.0546687059104 -0.00427611824125 -0.0479352325201 0.126838818192
296.533333333 -0.495654523373 -0.0989437103271 1.16684222221 -5.3054933548 0.049625530839 -0.0326225198805 0.00503501622006 0.116371750832
296.7375 -0.566930234432 0.0105361845344 -5.46260023117 4.74465036392 0.0395459085703 -0.0661104768515 0.0878482758999 0.146127536893
296.941666667 -0.486968010664 0.174426719546 7.58560037613 1.34214711189 8.55773832882e-05 -0.0791995674372 0.135276645422 0.090347699821
297.145833333 -0.329384595156 -0.127096265554 -3.42326331139 -5.07389688492 -0.0443000011146 -0.0701517686248 0.148440271616 0.027337083593
297.35 -0.412273824215 0.25829744339 -1.98910737038 5.24156713486 -0.0875480473042 -0.0334287695587 0.108630776405 -0.0597888380289
297.554166667 -0.140155658126 -0.135722383857 4.33236885071 -0.895145773888 -0.103647902608 0.0221409257501 0.0476691573858 -0.0690563172102
297.758333333 -0.147068992257 -0.130244806409 -2.99477934837 -2.04698586464 -0.10900568217 0.0572738423944 0.0249857660383 -0.0684882476926
297.9625 -0.254065036774 -0.280966877937 1.47792065144 2.69278144836 -0.0907518789172 0.108852379024 0.0103133544326 -0.0316641665995
298.166666667 -0.579466998577 -0.420808970928 0.730142235756 -2.82132697105 -0.0182634592056 0.160357803106 0.00700596533716 -0.0339577160776
298.370833333 -0.608949005604 -0.104949779809 -2.70222520828 0.54456871748 0.0872236341238 0.122790388763 0.0288554709405 -0.0401346646249
298.575 -0.513724863529 0.018822947517 1.08958745003 2.32194566727 0.120063379407 0.000450263294624 0.0297493189573 -0.0270481072366
298.779166667 -0.345697134733 0.299732327461 1.74411952496 -1.6461404562 0.0514243170619 -0.0920849069953 0.0674408078194 -0.069377861917
298.983333333 -0.0177615527064 0.413332730532 -2.42940020561 -0.621890842915 -0.0562187545002 -0.0938038006425 0.055175345391 -0.0691131651402
299.1875 0.0689005255699 0.392072021961 1.45993769169 2.20562577248 -0.118419617414 -0.0228608697653 0.0134812751785 -0.176255851984
299.391666667 0.355494916439 0.282988011837 -0.321804016829 -2.49862122536 -0.138153851032 0.0287548732013 -0.0621968694031 -0.187977030873
299.595833333 0.278484523296 0.272729545832 -0.485458821058 2.35111880302 -0.145780146122 0.0368902720511 -0.170223876834 -0.157583296299
299.8 0.34908169508 0.132896587253 1.18122661114 -1.43388652802 -0.149339720607 0.0483059585094 -0.225099593401 -0.0740238577127
300.004166667 0.348799437284 -0.00669265864417 -1.08449482918 1.01022517681 -0.169566750526 0.0918171480298 -0.212570533156 0.0774175003171
300.208333333 0.215559542179 -0.136917889118 1.10896980762 -0.690117359161 -0.203493565321 0.101001299918 -0.140566363931 0.178903654218
300.4125 0.182176664472 -0.126280665398 -1.06973934174 0.226808652282 -0.237579554319 0.145251005888 -0.0514070279896 0.203497976065
300.616666667 0.00457457173616 -0.114326797426 0.983671486378 0.0782088413835 -0.240680247545 0.212740540504 0.0167787112296 0.207774743438
300.820833333 -0.00138017849531 -0.070757843554 -0.966232478619 -0.426234453917 -0.208719268441 0.258902668953 0.0581265464425 0.216792613268
301.025 0.00185511575546 -0.0402318872511 0.886969506741 0.933820664883 -0.192970022559 0.279002606869 0.148061349988 0.156625494361
301.229166667 0.00600047362968 0.049046240747 -0.768442153931 -1.11522769928 -0.180704250932 0.223434358835 0.153226658702 0.14783744514
301.433333333 0.0833132490516 -0.021868808195 0.597578883171 1.17395925522 -0.204329848289 0.153710186481 0.151883408427 0.0213504116982
301.6375 0.0848484188318 -0.016752390191 -0.098370090127 -1.24860286713 -0.226830378175 0.161147132516 0.112666003406 0.018804397434
301.841666667 0.0666159018874 -0.0543165951967 -0.435494095087 1.00295305252 -0.191643714905 0.207641422749 0.0198556315154 -0.00356599339284
302.045833333 0.0885100439191 -0.0995802357793 0.804348468781 -0.425586313009 -0.0773026943207 0.254323035479 0.0364490635693 0.04211666435
302.25 -0.0207542516291 -0.0826113149524 -0.733608543873 -0.236528068781 0.0841080769897 0.27702152729 0.0444005019963 0.0925818532705
302.454166667 -0.0316215716302 -0.149067118764 0.193345919251 0.562919795513 0.265279501677 0.170866534114 0.104532033205 0.0532064400613
302.658333333 -0.132066771388 -0.0287396218628 0.311861425638 -0.425151199102 0.325494110584 -0.0665168687701 0.123319067061 -0.000822320580482
302.8625 -0.109268918633 -0.0245884712785 -0.586837351322 0.0238630864769 0.254166692495 -0.313846677542 0.113325245678 -0.0512437224388
303.066666667 -0.133305102587 0.0220086220652 0.37104305625 0.525991499424 0.124161072075 -0.512205421925 0.112419746816 -0.108056999743
303.270833333 -0.108565293252 0.0789870843291 0.115151911974 -0.587634205818 -0.0930960178375 -0.623761415482 0.103881254792 -0.116124421358
303.475 -0.0321603380144 0.0477051511407 -0.580647587776 0.467146545649 -0.31607568264 -0.526045620441 0.0541247464716 -0.199033558369
303.679166667 -0.00176576606464 0.130304291844 0.983338057995 0.267568826675 -0.551601469517 -0.203159824014 0.00940226856619 -0.229653552175
303.883333333 0.0549187324941 -0.0016846510116 -0.189378559589 -1.14738380909 -0.446450173855 0.213364958763 -0.14469884336 -0.235472068191
304.0875 -0.00591235002503 -0.0181145630777 -1.23192119598 0.551620900631 -0.0614988580346 0.394086033106 -0.159712836146 -0.169775113463
304.291666667 0.00777690531686 0.0154029261321 0.926789581776 0.988895773888 0.235766276717 0.221607536077 -0.224428534508 -0.050172585994
304.495833333 -0.0459287762642 -0.0317758731544 0.61421585083 -1.1359500885 0.244155019522 -0.0413456521928 -0.0861659348011 0.00269487709738
304.7 -0.0169960968196 0.0501824393868 -1.18562293053 -0.183378979564 0.149184644222 -0.21237000823 -0.0698429942131 0.0361679941416
304.904166667 -0.077490195632 0.0436219014227 0.360947430134 1.31624114513 0.01663139835 -0.261395126581 -0.00566815957427 0.00427933922037
305.108333333 0.0146268904209 0.139250636101 1.03535604477 -1.06275379658 -0.0790531337261 -0.213167116046 0.00887486990541 -0.0286054238677
305.3125 0.0534990094602 0.128414541483 -1.61435043812 -0.180104076862 -0.154833734035 -0.156909972429 -0.0391471534967 -0.033197004348
305.516666667 0.146529912949 0.0556776896119 1.04774522781 1.38006067276 -0.201777175069 -0.0702752768993 0.000476413901197 -0.0324432961643
305.720833333 0.145711138844 0.0747628957033 0.472115039825 -2.22742915154 -0.198072239757 0.0224207732826 -0.0553287379444 -0.0458059385419
305.925 0.221979320049 -0.0864169448614 -2.71444678307 1.2890008688 -0.15300783515 0.0883630290627 -0.0436336062849 -0.0543228499591
306.129166667 0.190013095737 -0.0751785188913 3.29685664177 1.26484918594 -0.11102937907 0.11140588671 -0.08721473068 -0.0588681101799
306.333333333 0.10184019804 -0.190962210298 -1.34734523296 -3.40147900581 -0.0364684760571 0.130539089441 -0.156953901052 -0.0139145916328
306.5375 0.0486782640219 -0.192944571376 -2.96471595764 2.74705934525 0.0571093559265 0.0981602668762 -0.0959026813507 0.0917999446392
306.741666667 -0.026429573074 -0.102537289262 3.61241984367 1.9717823267 0.0996265336871 0.0245906747878 -0.0863555073738 0.139338940382
306.945833333 0.0287987366319 -0.146356478333 1.13344395161 -3.88158226013 0.0775717422366 -0.0536382049322 0.0397224873304 0.154262140393
307.15 -0.0565887056291 -0.0429093800485 -4.15227794647 -0.473577737808 0.000461297633592 -0.0820157527924 0.09951467067 0.137630149722
307.354166667 -0.0176711678505 -0.0308907814324 -0.33461150527 4.70521640778 -0.0654939264059 -0.0245688557625 0.145526871085 0.0645805820823
307.558333333 0.0152743980289 0.00247067515738 4.67017555237 0.252866923809 -0.0549730211496 0.0473173484206 0.167893022299 0.0338178724051
307.7625 0.0181510616094 -0.0369483307004 -0.855111479759 -4.1782002449 0.00606548273936 0.0940988361835 0.0996069386601 -0.0616673231125
307.966666667 0.11500184983 -0.0549322627485 -2.93659234047 1.93408811092 0.0594572909176 0.0830700322986 0.126406088471 -0.0389567166567
308.170833333 -0.0249394457787 -0.129753872752 2.65828967094 1.23467087746 0.11657294631 0.0282539408654 0.0635156109929 -0.127611666918
308.375 0.0130042051896 -0.113062612712 -0.230226993561 -2.5129327774 0.128394678235 -0.0701036378741 0.0136391222477 -0.0993073657155
308.579166667 -0.0860146731138 -0.168418079615 -2.01839900017 1.35324382782 0.0909253805876 -0.152212128043 -0.00404864689335 -0.0808751434088
308.783333333 -0.158782064915 -0.190814509988 2.04620265961 1.20712339878 0.0178559720516 -0.195702880621 -0.0345773510635 -0.0637646466494
308.9875 -0.190700814128 -0.132058486342 0.435868650675 -2.26115512848 -0.0913864672184 -0.16736330092 0.010926797986 0.0190087612718
309.191666667 -0.273564219475 -0.145049005747 -2.16252684593 0.138861715794 -0.169490367174 -0.0943113788962 0.0440428070724 -0.0267557185143
309.395833333 -0.216928064823 -0.000158993454534 0.618846774101 1.82644784451 -0.190813168883 0.0558956414461 0.0698212757707 -0.0343389846385
309.6 -0.258894562721 0.00184518401511 1.39334774017 -1.03721117973 -0.0851975604892 0.192023545504 0.0445938371122 -0.0836232379079
309.804166667 -0.175775468349 0.139287248254 -1.16247427464 -0.80744856596 0.102814354002 0.217614084482 0.0288986321539 -0.133350074291
310.008333333 -0.122778087854 0.176441758871 -0.117151737213 1.06621718407 0.260104984045 0.103910990059 -0.0581005476415 -0.0987536981702
310.2125 -0.0191989261657 0.157679498196 0.815514624119 -0.438098162413 0.336466699839 -0.0265858434141 -0.0562432818115 -0.11886677891
310.416666667 -0.0289515387267 0.137687936425 -0.632951080799 -0.59865963459 0.310264855623 -0.181590825319 -0.125562056899 -0.118628874421
310.620833333 0.00722781196237 0.0836136266589 -0.312551438808 0.614564657211 0.136271074414 -0.340244621038 -0.125140994787 -0.0892157405615
310.825 0.0221609994769 0.0849295184016 0.529536724091 0.0760741680861 -0.18344463408 -0.311669498682 -0.134327322245 -0.0300278924406
311.029166667 0.0102438880131 0.057430896908 -0.0990708619356 -0.371491789818 -0.356873810291 -0.137556433678 -0.135858207941 0.0282692201436
311.233333333 0.064968355 0.0553374253213 -0.306508541107 0.262338012457 -0.383155733347 0.117403715849 -0.0791735872626 0.0890265852213
311.4375 -0.0172436870635 0.022854950279 0.439270168543 0.145608812571 -0.227190420032 0.274549543858 -0.0857483446598 0.100956216455
311.641666667 0.0561716705561 0.0648384764791 -0.106037117541 -0.526762187481 -0.0372802764177 0.325312942266 -0.0217231325805 0.127539202571
311.845833333 0.0393941253424 0.0691798180342 -0.492140263319 0.482195734978 0.141879200935 0.304366409779 0.0092163188383 0.09461581707
312.05 0.133539065719 0.0592820420861 0.838429987431 0.138711243868 0.220186084509 0.1964173913 0.00773697113618 0.0691877529025
312.254166667 0.12408387661 0.0393517576158 -0.423345655203 -0.917710125446 0.226753175259 0.102198734879 0.0114663951099 0.0972007811069
312.458333333 0.15596857667 -0.0132247330621 -0.720802485943 1.02434897423 0.202156484127 0.000940122583415 0.0303708091378 0.0497326552868
312.6625 0.164531245828 -0.0309192761779 1.36874771118 0.386286318302 0.184116989374 -0.108610890806 0.0120143005624 0.0983177125454
312.866666667 0.161429271102 -0.136625409126 0.0366379581392 -1.47243559361 0.0834050625563 -0.236182838678 0.0479924045503 0.0805382356048
313.070833333 0.11098652333 -0.182705119252 -1.33865201473 0.320845514536 -0.125242546201 -0.294994682074 0.0645623505116 0.0692565888166
313.275 0.0467091426253 -0.208014830947 0.604129135609 0.96703517437 -0.379818379879 -0.19634604454 0.00789249315858 0.0679385066032
313.479166667 0.0307124368846 -0.226919978857 0.558331787586 -0.622434139252 -0.508013427258 0.0764315873384 0.0874101743102 0.0999701172113
313.683333333 -0.0767190009356 -0.166927874088 -0.586673676968 -0.231622874737 -0.475968182087 0.413245230913 0.0460048951209 0.0811378657818
313.8875 -0.0497822016478 -0.162590935826 -0.032962013036 0.519821047783 -0.249652668834 0.745917439461 0.166788309813 0.151598006487
314.091666667 -0.183152750134 -0.112176857889 0.465728372335 -0.0855364874005 0.491766661406 0.967450261116 0.234812304378 0.0245637483895
314.295833333 -0.128113046288 -0.0280506741256 -0.121935725212 -0.445117145777 1.16033899784 0.208799600601 0.283991485834 -0.0516858063638
314.5 -0.115698054433 0.0156626664102 -0.410920679569 0.11316036433 0.897260904312 -0.746676206589 0.223857492208 -0.0941410064697
314.704166667 -0.0914347693324 0.00226657837629 0.15822018683 0.381137043238 -0.0261697564274 -1.00465488434 0.182210564613 -0.174755170941
314.908333333 -0.0731095522642 0.0628013312817 0.394626885653 -0.228055030107 -0.598233044147 -0.727006137371 0.0717373266816 -0.179485410452
315.1125 -0.0524889752269 -0.00657877558842 -0.351730525494 -0.432090461254 -0.871621489525 -0.097219273448 0.0893604978919 -0.239502206445
315.316666667 -0.0484269969165 0.0629476681352 -0.615276098251 0.50186830759 -0.722904324532 0.441126316786 0.0320014804602 -0.331718951464
315.520833333 -0.0260958820581 -0.0172837693244 0.481752336025 0.928143978119 -0.0155232511461 0.706185281277 0.0180442463607 -0.396210193634
315.725 -0.0386122129858 0.0186375081539 1.02640855312 -0.399009644985 0.459682375193 0.158277839422 -0.168460145593 -0.293930143118
315.929166667 -0.0691539272666 -0.0149445170537 -0.106524124742 -1.30209553242 0.19123287499 -0.281648397446 -0.234066411853 -0.149746358395
316.133333333 -0.0631947666407 0.0499160774052 -1.26950764656 -0.146834939718 -0.216295018792 -0.259758770466 -0.187628537416 0.03035145998
316.3375 -0.0798799395561 -0.00204063858837 -0.455065071583 1.21133971214 -0.348993599415 0.0417084433138 -0.181346163154 0.0364962853491
316.541666667 -0.0938595756888 0.0683557391167 0.827209174633 1.03867518902 -0.0857665911317 0.277754038572 -0.103233516216 0.0405365563929
316.745833333 -0.0658294558525 0.0882262811065 1.30897390842 -0.670453488827 0.231677368283 0.127314224839 -0.100103773177 0.0527871362865
316.95 -0.0613407529891 0.124894596636 0.130711212754 -1.67956852913 0.156439617276 -0.192415431142 -0.0346906743944 0.0434845611453
317.154166667 0.0289236418903 0.186365351081 -1.35466682911 -1.11383223534 -0.184341266751 -0.130313873291 -0.118887215853 0.026446223259
317.358333333 0.110726699233 0.0927525311708 -1.87705671787 0.45150616765 -0.160791769624 0.168663471937 -0.0445400178432 0.0932481065392
317.5625 0.0572321414948 0.12056516856 -0.68825095892 1.85945832729 0.145360693336 0.149436414242 -0.0800096988678 0.0520354285836
317.766666667 0.150828674436 0.0484487079084 1.34286677837 1.34493327141 0.154093489051 -0.141059041023 -0.00267372396775 0.101341038942
317.970833333 0.107537932694 0.0147199276835 1.42523360252 -0.857303440571 -0.109633311629 -0.194074243307 -0.0260584764183 0.0685891360044
318.175 0.120448164642 -0.0705071911216 -0.514311611652 -1.33892965317 -0.252439171076 0.0405326709151 0.00892772711813 0.0846136882901
318.379166667 0.0701059773564 -0.0628237575293 -1.26287603378 0.311649858952 -0.0677244961262 0.287064313889 0.000980631564744 0.100181080401
318.583333333 0.037259735167 -0.132773324847 0.111306518316 1.20178806782 0.24059663713 0.21437895298 0.0566642954946 0.110096171498
318.7875 -0.0131145743653 -0.0536073073745 1.19979357719 0.149937748909 0.348779141903 -0.0718920603395 0.0639148429036 0.11691852659
318.991666667 0.0174168404192 -0.10436668992 0.217438414693 -1.11315774918 0.179417699575 -0.316997915506 0.111540965736 0.0928210914135
