!Created with skrf (http://scikit-rf.org).
# GHz S RI R 50.0 
!freq ReS11 ImS11 ReS21 ImS21 ReS12 ImS12 ReS22 ImS22
290.0 0.0379387624562 0.124930568039 2.65506434441 -3.64550185204 -0.0225505437702 0.0263878665864 -0.0219080429524 -0.0358838103712
290.204166667 -0.0360893197358 0.216886609793 -5.17584705353 -1.98663771152 0.00430916529149 0.0425369590521 -0.0487490594387 -0.0326480492949
290.408333333 0.180821344256 0.0575373470783 -2.10247302055 6.27603387833 0.0361460447311 0.0269477125257 -0.0755342394114 0.0275158435106
290.6125 0.0840005204082 0.105189524591 4.82142972946 0.83523452282 0.0390354171395 -0.00393126159906 -0.0958754941821 0.0644970983267
290.816666667 0.0564209781587 -0.0643710643053 -1.09692764282 -3.20376634598 0.0251336935908 -0.046341098845 -0.014255466871 0.113160386682
291.020833333 0.00646485993639 0.0387882478535 -1.97833538055 1.76003420353 -0.0105304950848 -0.0839870870113 0.0118901366368 0.113650366664
291.225 0.0359033569694 0.0443330295384 2.12416553497 0.412526637316 -0.0828488171101 -0.0558342263103 0.122322276235 0.106214262545
291.429166667 0.116111308336 0.022074919194 -0.61908698082 -1.80990624428 -0.141612291336 0.0323789790273 0.126150235534 0.0714676752687
291.633333333 0.192256018519 -0.113671757281 -1.38054871559 0.837930560112 -0.0756680443883 0.185940340161 0.156638532877 -0.0589482448995
291.8375 0.172916129231 -0.180922791362 0.681330025196 1.37636685371 0.176682963967 0.179659977555 0.0845357403159 -0.0316341035068
292.041666667 0.0629219710827 -0.354733407497 1.07514882088 -0.280749887228 0.265523344278 -0.133158370852 0.0431370362639 -0.106147423387
292.245833333 -0.0500814132392 -0.257035940886 -0.34187027812 -0.820763289928 -0.0653565600514 -0.346471101046 -0.0301784407347 -0.0509059540927
292.45 -0.29335808754 -0.249487429857 -0.529290139675 0.459626734257 -0.345948249102 -0.215837344527 -0.00724788941443 -0.00713938800618
292.654166667 -0.265867203474 -0.0795295909047 0.585704684258 0.103167563677 -0.423012942076 -0.0431482642889 -0.0165268331766 -0.00134843157139
292.858333333 -0.253222048283 0.0379867069423 -0.296642482281 -0.500104904175 -0.399474859238 0.116394497454 0.0905742123723 0.049581322819
293.0625 -0.145275339484 0.126627936959 -0.210911214352 0.585788846016 -0.264704465866 0.222388491035 0.118958927691 -0.0344430059195
293.266666667 0.00126162380911 0.160156741738 0.751968801022 -0.164671301842 -0.0480219721794 0.253732830286 0.159856528044 -0.0968488976359
293.470833333 0.060381218791 0.104206100106 -0.437384068966 -0.706555366516 0.181964531541 0.164950117469 0.0892535373569 -0.152137428522
293.675 0.0824074521661 0.0495295040309 -0.57357108593 0.554750442505 0.247778221965 -0.0966164022684 0.0115080289543 -0.244799464941
293.879166667 0.106378003955 -0.00106351508293 0.722702622414 0.387940317392 0.0262448303401 -0.2307754457 -0.13716584444 -0.0939044877887
294.083333333 -0.0147512862459 -0.00986290257424 0.0878970324993 -1.09069931507 -0.156959235668 -0.127168238163 -0.165883526206 -0.07527218014
294.2875 0.097740739584 -0.0433046966791 -1.08327770233 0.131064623594 -0.248503446579 -0.0319247804582 -0.197918444872 -0.0434962324798
294.491666667 -0.0230554323643 0.0551476143301 0.429333627224 0.736195862293 -0.292215496302 0.0874048992991 -0.153857976198 0.00578228523955
294.695833333 0.151557907462 0.0383069887757 0.557016432285 -0.673598945141 -0.430375128984 0.23658876121 -0.174481853843 0.00477723730728
294.9 0.183615013957 0.0558071397245 -0.995263457298 -0.130660533905 -0.759744346142 0.37620806694 -0.305074155331 -0.024991678074
295.104166667 0.191211462021 -0.0454091504216 0.468964934349 0.845032036304 -0.358776956797 0.751719176769 -0.129432752728 0.145504131913
295.308333333 0.22711135447 -0.0355832800269 0.27669647336 -1.25248301029 0.0899274870753 0.548304438591 0.0128410113975 0.0498564876616
295.5125 0.215112999082 -0.229387447238 -1.67005085945 0.745899200439 0.059275239706 0.42326810956 -0.143070533872 -0.0439506396651
295.716666667 0.140445798635 -0.283029913902 1.79142725468 1.59641683102 0.12533326447 0.257849037647 -0.0883689150214 0.0192535053939
295.920833333 0.0618574917316 -0.313033521175 1.1016010046 -3.26272010803 0.144580706954 0.124679528177 -0.192203506827 0.0315058641136
296.125 0.0351368151605 -0.460327357054 -4.97590208054 0.777299165726 0.101883672178 0.0436675734818 -0.0875413119793 0.103179320693
296.329166667 -0.364820063114 -0.290943801403 4.89268636703 3.7825717926 0.081000700593 0.00136498629581 -0.0622994154692 0.135032385588
296.533333333 -0.459483534098 -0.188954859972 -1.34161424637 -6.87577533722 0.0795290842652 -0.0230504199862 0.0187203865498 0.120737314224
296.7375 -0.580880224705 0.0204970408231 -5.65301322937 7.19793510437 0.0909149795771 -0.0492189452052 0.0757060274482 0.155755653977
296.941666667 -0.72861289978 -0.0738045275211 9.25265884399 2.71895051003 0.0748729258776 -0.0735608786345 0.16326084733 0.0676479712129
297.145833333 -0.135921597481 0.443450838327 -1.80739569664 -7.88300657272 0.0497839562595 -0.095702521503 0.127542302012 0.0223195925355
297.35 -0.279854178429 -0.321764528751 -5.65899848938 3.87463021278 0.00939640495926 -0.118690364063 0.105275586247 -0.0433711260557
297.554166667 -0.306214094162 0.0899142026901 4.40819501877 3.3961789608 -0.0308573953807 -0.129463538527 0.0640347748995 -0.0841110870242
297.758333333 -0.0861966535449 -0.234197020531 0.586465656757 -4.49954891205 -0.0455495417118 -0.150165513158 0.0152327260002 -0.0505676567554
297.9625 -0.2674523592 -0.364254623652 -2.77379012108 2.43563055992 -0.0739142820239 -0.166486129165 0.0177627317607 -0.0503685697913
298.166666667 -0.734601855278 -0.17097055912 3.6003651619 0.991210639477 -0.14385664463 -0.149384841323 0.00595717784017 -0.0240620616823
298.370833333 -0.409165203571 -0.167728424072 0.322048604488 -3.37055563927 -0.184517145157 -0.0628715008497 0.0163769926876 -0.0459933802485
298.575 -0.585707008839 0.0204824022949 -3.24262428284 -0.33955258131 -0.142447173595 0.0577158294618 0.0421094745398 -0.0115874065086
298.779166667 -0.332252770662 0.296404540539 -0.108233623207 3.05720853806 -0.0493486113846 0.12306369096 0.0677814930677 -0.0796558782458
298.983333333 -0.0389971360564 0.428575098515 2.99924039841 -0.828143596649 0.0573535338044 0.121631100774 0.0529228635132 -0.0626581832767
299.1875 0.0584129802883 0.339088529348 -2.42123889923 -2.09693861008 0.131043061614 0.0749246329069 0.0237768609077 -0.192582085729
299.391666667 0.351756513119 0.410326182842 0.555463552475 3.11062121391 0.16710858047 0.0640360191464 -0.0860356912017 -0.179368287325
299.595833333 0.349955409765 0.153870165348 1.22388398647 -2.76659727097 0.160657688975 0.0968138277531 -0.174198776484 -0.145211920142
299.8 0.339179247618 0.141950920224 -2.11299729347 0.982456803322 0.146562084556 0.129450082779 -0.195883393288 -0.0787226483226
300.004166667 0.238311588764 -0.0057574454695 1.85461211205 -0.111006550491 0.16996768117 0.167719304562 -0.232908502221 0.0831458866596
300.208333333 0.353313624859 -0.0689957886934 -1.52292251587 -0.61869007349 0.136773109436 0.246738925576 -0.13221244514 0.159656405449
300.4125 0.0922147929668 -0.164285615087 0.782018184662 1.11260163784 0.119748003781 0.325232297182 -0.0598037838936 0.223428204656
300.616666667 0.0877014771104 -0.11431774497 -0.0982606634498 -1.21395730972 0.116319023073 0.388493448496 0.0023727864027 0.207833573222
300.820833333 -0.0395618490875 -0.089085072279 -0.644057750702 1.16278958321 0.0965717807412 0.408286511898 0.106875836849 0.225891366601
301.025 -0.0303831808269 -0.0449660681188 1.45807480812 -0.677886486053 0.0323392637074 0.430140823126 0.108781605959 0.135582968593
301.229166667 0.0286966338754 0.0745443478227 -1.67079615593 0.0629901215434 -0.0816519334912 0.3450332582 0.17873197794 0.154235482216
301.433333333 0.0916992351413 -0.0315505452454 1.52599394321 0.543025016785 -0.211418151855 0.240181848407 0.127238065004 0.00266837980598
301.6375 0.0739975571632 -0.0250642541796 -0.892452001572 -1.27440285683 -0.2853987813 0.193887934089 0.106867454946 0.0492114536464
301.841666667 0.0669644251466 -0.0534077212214 -0.167027205229 1.34991800785 -0.295664995909 0.190901920199 0.0344554930925 -0.0188140198588
302.045833333 0.104720570147 -0.0906526371837 0.983076155186 -0.589664399624 -0.230748340487 0.236693248153 0.0475607067347 0.0643151178956
302.25 -0.0786634162068 -0.137149423361 -0.845442473888 -0.47765314579 -0.147903606296 0.329017579556 0.0402709171176 0.0488997362554
302.454166667 0.000698071322404 -0.0487682446837 -0.0686332806945 0.729263007641 0.0233262237161 0.393699109554 0.0974433869123 0.0747561007738
302.658333333 -0.112395457923 -0.124693259597 0.640573382378 -0.165777549148 0.235882893205 0.34514477849 0.118965566158 0.00221403990872
302.8625 -0.143877401948 0.0117633631453 -0.477433472872 -0.562853455544 0.443798989058 0.243265599012 0.116637766361 -0.0592902265489
303.066666667 -0.148378655314 0.0422235652804 -0.410308986902 0.687306702137 0.629796802998 0.186576679349 0.128443986177 -0.0802977457643
303.270833333 -0.0517645068467 0.0468548201025 0.748795926571 -0.0110599668697 0.77090293169 0.0991465225816 0.0914712771773 -0.179353147745
303.475 -0.124009907246 0.121218018234 -0.548975408077 -0.744343519211 0.770066022873 -0.0309571363032 0.0461273901165 -0.145631104708
303.679166667 0.117574103177 0.086883738637 -0.632135033607 1.09513795376 0.647167444229 -0.336382955313 -0.00592457596213 -0.279939711094
303.883333333 -0.0090153189376 -0.0243131984025 1.36199259758 0.482461959124 0.306445330381 -0.540492832661 -0.129791051149 -0.173154488206
304.0875 -0.0036911405623 0.00655988883227 0.514024317265 -1.60498142242 -0.1108770594 -0.48052290082 -0.159128263593 -0.210144340992
304.291666667 0.0113330250606 0.0120418109 -1.64499700069 -0.348386377096 -0.336712241173 -0.220297545195 -0.220795154572 -0.0253167636693
304.495833333 -0.047644585371 -0.0350226759911 -0.170662418008 1.59067153931 -0.309171825647 0.0349144525826 -0.0693787261844 -0.0147876515985
304.7 -0.0306307133287 0.0833821818233 1.48929190636 -0.00513837859035 -0.255095660686 0.198649525642 -0.0908237397671 0.0172068756074
304.904166667 -0.0112354326993 0.011544267647 -0.314035058022 -1.67159461975 -0.181178733706 0.271638482809 -0.0218956433237 0.0139505965635
305.108333333 -0.0361073426902 0.121407262981 -1.62257480621 0.878535091877 -0.106877945364 0.262168169022 0.00660347659141 0.0103964209557
305.3125 0.0383982025087 0.101774871349 1.5977203846 1.2244617939 -0.0498296320438 0.265661180019 0.00473703769967 -0.0683922842145
305.516666667 0.127166330814 0.157682433724 0.223704472184 -2.12535429001 0.0143267204985 0.258841246367 -0.0442905798554 -0.0106549421325
305.720833333 0.193266108632 -0.0347535088658 -2.62988853455 1.05418300629 0.0724065452814 0.232932090759 -0.00751272961497 -0.0617673918605
305.925 0.197230577469 0.0114563833922 2.68618321419 2.58942508698 0.103346310556 0.19207854569 -0.0739027187228 -0.0618916787207
306.129166667 0.212194055319 -0.1897354424 1.01764142513 -4.25420379639 0.0993868038058 0.170870169997 -0.110509164631 -0.0597675293684
306.333333333 0.0651113912463 -0.158851668239 -4.31661701202 1.39886415005 0.12160384655 0.116984643042 -0.116689972579 0.0299272891134
306.5375 0.0314351692796 -0.150456264615 2.17595505714 4.46651220322 0.140050545335 0.0271042473614 -0.120331756771 0.0396141707897
306.741666667 0.0563912540674 -0.0936609506607 4.31413841248 -2.66589713097 0.118777506053 -0.0463343709707 -0.072443857789 0.175755962729
306.945833333 0.00834649987519 -0.174105465412 -2.54141426086 -4.29599523544 0.0614132098854 -0.0985890626907 0.0378646068275 0.12961602211
307.15 -0.0485648848116 -0.0505336895585 -4.52004814148 2.37587332726 -0.021146049723 -0.0983814820647 0.0957989543676 0.143292635679
307.354166667 -0.0120516465977 -0.0237666219473 1.7118076086 5.52350139618 -0.0793597474694 -0.0307089537382 0.136646613479 0.0672337338328
307.558333333 0.0303846970201 -0.0115729905665 5.72630739212 -0.515450596809 -0.0798506885767 0.0393099710345 0.172399133444 0.0595577806234
307.7625 -0.00708779226989 -0.0804306417704 -0.603960871696 -5.20017242432 -0.0439895018935 0.10556127876 0.137660250068 -0.0974607244134
307.966666667 0.0729994997382 0.0267211589962 -4.1924533844 1.23209357262 -0.00653571635485 0.125799164176 0.066655524075 -0.040087569505
308.170833333 0.0708472952247 -0.186554834247 2.06123137474 2.90189862251 0.0626610815525 0.132936701179 0.0978378206491 -0.108273625374
308.375 -0.0682366192341 -0.108366452157 1.86959433556 -2.46840953827 0.148159831762 0.10309779644 0.00522327004001 -0.115420885384
308.579166667 -0.0576345920563 -0.175037756562 -2.77108883858 -1.07042586803 0.207806766033 0.0633405819535 -0.038294326514 -0.0797994434834
308.783333333 -0.152892708778 -0.161462545395 -0.437226563692 2.8956656456 0.240311086178 0.0145206628367 0.0124621419236 -0.00940501131117
308.9875 -0.230102553964 -0.173313125968 2.82829165459 0.0496837571263 0.221888706088 -0.0714492425323 0.0107514858246 -0.0564466863871
309.191666667 -0.233644172549 -0.0447545200586 -0.0306542143226 -2.66352677345 0.187922209501 -0.149449065328 0.0199780035764 0.0121364109218
309.395833333 -0.187249138951 -0.119824819267 -2.36458683014 0.143894985318 0.0808267146349 -0.231050908566 0.0683445110917 -0.0498803444207
309.6 -0.314423531294 0.0460168719292 0.326545059681 2.09456658363 -0.0801993981004 -0.244019150734 0.058912884444 -0.068176984787
309.804166667 -0.166614562273 0.122413784266 1.68269741535 -0.447079867125 -0.242068842053 -0.164482831955 0.00697255460545 -0.146121799946
310.008333333 -0.12599645555 0.186988025904 -0.664607942104 -1.13820874691 -0.341396838427 -0.0216141529381 -0.0376275219023 -0.0771181210876
310.2125 -0.0199823789299 0.157476723194 -0.689071774483 0.911196172237 -0.406721383333 0.0776812285185 -0.0496317371726 -0.142382830381
310.416666667 -0.033604696393 0.141132175922 0.908577859402 0.552847385406 -0.403021901846 0.182032257318 -0.143699333072 -0.127612859011
310.620833333 0.0231178235263 0.0945169255137 0.384577959776 -0.754992723465 -0.289293467999 0.343615651131 -0.136327296495 -0.0893508717418
310.825 0.0205134376884 0.0768378823996 -0.60684722662 -0.232005164027 0.00126843131147 0.44216632843 -0.136857435107 0.00160916149616
311.029166667 0.0216105282307 0.0322948470712 -0.085883371532 0.466255247593 0.206222042441 0.419277578592 -0.106328248978 0.00535437744111
311.233333333 -0.00134408206213 0.0918321609497 0.487075835466 -0.0272672567517 0.389781475067 0.294898629189 -0.123320735991 0.0953001901507
311.4375 0.0677632987499 0.0189436748624 -0.20988355577 -0.532308280468 0.419477373362 0.124362774193 -0.0304489489645 0.109917663038
311.641666667 -0.0114170340821 0.049676194787 -0.502527177334 0.416717708111 0.398442625999 -0.0392924919724 -0.0552320890129 0.0995078906417
311.845833333 0.103793352842 0.0773935317993 0.730425059795 0.4159912467 0.373445510864 -0.168929636478 0.00099500734359 0.104260072112
312.05 0.0810821354389 0.0570154152811 0.113654524088 -1.03239178658 0.29556787014 -0.208903312683 0.01193464268 0.105010800064
312.254166667 0.149770230055 0.041661940515 -1.18405258656 0.337416887283 0.228807270527 -0.200753822923 0.0510487221181 0.0623884387314
312.458333333 0.142334058881 0.0149250617251 0.857202172279 1.27908957005 0.14843057096 -0.198719918728 -0.0150358499959 0.0537743456662
312.6625 0.210171684623 -0.0636644139886 1.30529665947 -1.12046945095 0.0797383785248 -0.247322559357 0.0471929349005 0.110761091113
312.866666667 0.119454473257 -0.147745445371 -1.22578573227 -1.32818901539 -0.0551477409899 -0.302107214928 0.0355079621077 0.0595848672092
313.070833333 0.113154515624 -0.17232632637 -1.17952287197 1.1880313158 -0.256868600845 -0.294077306986 0.054434530437 0.0660992860794
313.275 0.0414073616266 -0.204586878419 1.09244012833 0.871119737625 -0.487070262432 -0.188854530454 -0.00755499489605 0.0850522369146
313.479166667 0.0440326370299 -0.219827279449 0.571693539619 -0.840651273727 -0.625077307224 0.0336623415351 0.107514590025 0.129804700613
313.683333333 -0.095842666924 -0.190847322345 -0.688180565834 -0.347336679697 -0.704141914845 0.306827366352 0.0819472745061 0.0296520404518
313.8875 -0.0512700788677 -0.0953976809978 -0.216871187091 0.596008300781 -0.705952167511 0.654580652714 0.106054611504 0.159971445799
314.091666667 -0.123006641865 -0.172363549471 0.546129047871 0.184538781643 -0.311122894287 1.27840316296 0.273924142122 0.0242843832821
314.295833333 -0.173334136605 -0.022402567789 0.244205474854 -0.502166748047 0.652706086636 1.27191793919 0.247219651937 -0.0414229445159
314.5 -0.13014946878 -0.00166219903622 -0.408817708492 -0.318836092949 1.28447008133 0.601049363613 0.247771441936 -0.124970898032
314.704166667 -0.0725965425372 0.0685410276055 -0.340986132622 0.368488043547 1.18589246273 -0.326229900122 0.150403514504 -0.114071510732
314.908333333 -0.0614868253469 -0.0109135499224 0.376843988895 0.401995778084 0.85058927536 -0.772690594196 0.163430094719 -0.223348841071
315.1125 -0.0803581401706 0.078725464642 0.519322395325 -0.439617395401 0.28908136487 -1.02890193462 -0.00779236480594 -0.25302028656
315.316666667 0.00946300663054 -0.00579680548981 -0.45312961936 -0.847420275211 -0.184489175677 -1.00747692585 0.0761629268527 -0.285497367382
315.520833333 -0.0772057771683 0.00909722875804 -1.26825296879 0.107984930277 -0.709718048573 -0.477161765099 -0.00487299775705 -0.41121417284
315.725 -0.0195682030171 0.0100288158283 -0.314077794552 1.29489135742 -0.531691431999 0.2659073174 -0.161507561803 -0.302455723286
315.929166667 -0.0848722308874 0.0131852058694 1.18800115585 1.05894815922 -0.00724845472723 0.413454145193 -0.241550922394 -0.11927446723
316.133333333 -0.0289316605777 0.0422874242067 1.40623104572 -0.653980493546 0.362587362528 0.186902120709 -0.16595184803 0.0111122848466
316.3375 -0.0955071300268 -0.00685707712546 0.0179958920926 -1.57092511654 0.407567739487 -0.136019259691 -0.190444588661 0.0292251445353
316.541666667 -0.0989382043481 0.0821682065725 -1.17380547523 -1.10844147205 0.113055787981 -0.335957735777 -0.104868583381 0.0361291244626
316.745833333 -0.0520168580115 0.0968964546919 -1.63192164898 0.707638919353 -0.237433105707 -0.207006022334 -0.117341004312 0.0429899133742
316.95 -0.0385927706957 0.104231238365 -0.684502780437 1.91397476196 -0.268421798944 0.142983451486 -0.0407676547766 0.0954162999988
317.154166667 -0.0387154817581 0.163772687316 0.861782968044 1.96293592453 0.0853473991156 0.262580901384 -0.0630163475871 -0.0161573141813
317.358333333 0.141558930278 0.185000285506 2.10388875008 0.973277926445 0.27324873209 -0.00604882044718 -0.118788443506 0.103576183319
317.5625 0.117147050798 0.0364391207695 2.27870416641 -0.799495220184 0.0624221339822 -0.256196737289 -0.00100576446857 0.0544576272368
317.766666667 0.100042209029 0.0946660488844 0.67154020071 -2.18797540665 -0.217612579465 -0.118270620704 -0.0710063651204 0.0807339176536
317.970833333 0.136721581221 -0.0314324125648 -1.48960530758 -1.36375164986 -0.202433928847 0.171211466193 0.0114483544603 0.0880560427904
318.175 0.0854633003473 -0.0265834499151 -1.57555866241 0.738600969315 0.0387740805745 0.314626544714 -0.026372667402 0.083807349205
318.379166667 0.105227001011 -0.112256035209 0.174882516265 1.54746508598 0.313726842403 0.164519622922 0.0439790934324 0.102387472987
318.583333333 -0.01204336714 -0.0732945203781 1.43582570553 0.332709550858 0.354044348001 -0.155443355441 0.0304159522057 0.094614379108
318.7875 0.0719225108624 -0.0931900814176 0.894631624222 -1.14534318447 0.177638530731 -0.392423391342 0.0763359591365 0.12623731792
318.991666667 -0.0550865642726 -0.131212711334 -0.831592321396 -1.09090161324 -0.0982852876186 -0.43271663785 0.108838446438 0.0875093191862
319.195833333 -0.0344133861363 -0.0106002502143 -1.14894497395 0.673322737217 -0.320011436939 -0.305365651846 0.144574284554 0.0399892963469
