!Created with skrf (http://scikit-rf.org).
# GHz S RI R 50.0 
!freq ReS11 ImS11 ReS21 ImS21 ReS12 ImS12 ReS22 ImS22
290.0 0.0453223437071 0.160751134157 3.50274085999 -2.79563379288 -0.0248430836946 0.0337449163198 -0.0176885034889 -0.0301530733705
290.204166667 0.0103889573365 0.217312529683 -3.97428250313 -3.60091137886 -0.0032850059215 0.0456509590149 -0.0505055300891 -0.0312610790133
290.408333333 0.185197100043 0.07891741395 -3.79390764236 5.59219932556 0.0368286259472 0.0328566581011 -0.0748479291797 0.0280748736113
290.6125 0.0681661590934 0.0794411897659 4.65810489655 2.6113960743 0.039731848985 -0.00734908226877 -0.09361692518 0.0449499413371
290.816666667 0.0396513901651 -0.0174404513091 -0.0279418490827 -3.32882881165 0.0364730358124 -0.0443981401622 -0.0136275608093 0.108652450144
291.020833333 0.0265115052462 0.0324775390327 -2.25827264786 1.35940492153 -0.00431697303429 -0.0843372195959 0.00395875424147 0.118235863745
291.225 0.0598744116724 0.0390299595892 1.87597370148 0.911523878574 -0.0688015893102 -0.0747779980302 0.119354195893 0.104897588491
291.429166667 0.127171173692 0.0156888794154 -0.309963554144 -1.97531747818 -0.144534885883 -0.000488999241497 0.126949518919 0.0705388486385
291.633333333 0.175665512681 -0.141605004668 -1.56101214886 0.462497979403 -0.0876160115004 0.161922872066 0.157637342811 -0.0496994704008
291.8375 0.159337475896 -0.191049069166 0.409038066864 1.36224246025 0.133159175515 0.201829716563 0.087437428534 -0.0364885814488
292.041666667 0.0535094104707 -0.360383719206 1.1415835619 -0.128327190876 0.303966581821 -0.0782232433558 0.0506780557334 -0.1145042032
292.245833333 -0.0474111735821 -0.258762657642 -0.182083576918 -0.872286558151 0.0390955246985 -0.349566549063 -0.0184882637113 -0.0594915784895
292.45 -0.292763918638 -0.246409401298 -0.593894779682 0.366581112146 -0.293160825968 -0.280886918306 -0.00575109897181 -0.00836207903922
292.654166667 -0.264832645655 -0.0812310799956 0.561842083931 0.214846923947 -0.407262921333 -0.122443065047 -0.0167785808444 -0.000480827846332
292.858333333 -0.254247397184 0.0372659377754 -0.213829398155 -0.539614081383 -0.428225755692 0.0304513182491 0.0900166779757 0.0495405606925
293.0625 -0.146093443036 0.127368077636 -0.320180743933 0.550669193268 -0.301621466875 0.157539069653 0.118017487228 -0.0328265801072
293.266666667 1.65322853718e-05 0.160957559943 0.781262218952 -0.0314949043095 -0.0905215516686 0.234220609069 0.157550320029 -0.0921907350421
293.470833333 0.0639890506864 0.102037847042 -0.323243349791 -0.765332937241 0.150580897927 0.201311290264 0.0834988504648 -0.138223901391
293.675 0.0722346976399 0.0559998266399 -0.694595634937 0.443117260933 0.251899212599 -0.0260043274611 0.0126155968755 -0.236667081714
293.879166667 0.100799165666 -0.00514173554257 0.64234739542 0.487967848778 0.0967660695314 -0.214243963361 -0.126004189253 -0.096822462976
294.083333333 -0.0269683748484 0.00668034609407 0.391952544451 -0.939790070057 -0.127253293991 -0.1701169312 -0.165738508105 -0.077419295907
294.2875 0.0759518966079 -0.0098050814122 -1.03976476192 0.0278909243643 -0.233099356294 -0.0844869688153 -0.210360810161 -0.0350653231144
294.491666667 -0.00162588630337 0.0489740744233 0.347483247519 0.823516488075 -0.315577745438 0.0365835241973 -0.155397608876 -0.0173522252589
294.695833333 0.136886537075 0.0349772982299 0.710634052753 -0.50196403265 -0.488250225782 0.137515962124 -0.190496608615 0.0100960852578
294.9 0.178450837731 0.0493526980281 -0.962818741798 -0.172006964684 -0.766423285007 0.212821543217 -0.308164715767 0.021356349811
295.104166667 0.20040898025 -0.0453457795084 0.368889302015 0.918355584145 -0.606670677662 0.775555074215 -0.054190415889 0.202846065164
295.308333333 0.215915650129 -0.0235983040184 0.449119180441 -1.11400139332 -0.0458250120282 0.577586472034 0.00454500876367 0.0401946976781
295.5125 0.228859916329 -0.2313439399 -1.65884673595 0.667939662933 -0.0241254139692 0.401329815388 -0.146363526583 -0.0420077294111
295.716666667 0.142724201083 -0.284576922655 1.57486283779 1.87308084965 0.0564899817109 0.27359905839 -0.0960742980242 0.00373273389414
295.920833333 0.0708865597844 -0.302495926619 1.58186340332 -2.97367835045 0.11519664526 0.15850174427 -0.196325808764 0.0309963133186
296.125 0.0163494702429 -0.455030560493 -4.72686576843 0.130317911506 0.0911867246032 0.0611340850592 -0.0885528922081 0.104116983712
296.329166667 -0.353463321924 -0.299009054899 4.18581771851 4.37334346771 0.078117646277 0.0171030741185 -0.0637622922659 0.133653342724
296.533333333 -0.476949751377 -0.200233474374 -0.505841612816 -6.93265914917 0.0838503465056 -0.00854642130435 0.022209784016 0.119790941477
296.7375 -0.587535381317 0.0148367378861 -6.45318889618 6.76841497421 0.0980923548341 -0.0282794684172 0.0739777460694 0.156414210796
296.941666667 -0.73266094923 -0.0797025486827 9.05926990509 3.45500946045 0.0896432325244 -0.0555361099541 0.165312498808 0.0679884329438
297.145833333 -0.142434865236 0.442441493273 -1.32354366779 -7.83334255219 0.0692498013377 -0.0833938345313 0.127914071083 0.0246047228575
297.35 -0.276863783598 -0.29715526104 -5.83289670944 3.6416683197 0.0349815674126 -0.113044768572 0.105125330389 -0.0441821180284
297.554166667 -0.320378422737 0.0990332514048 4.23352050781 3.69581985474 -0.00277311378159 -0.133969739079 0.0639527365565 -0.0835770368576
297.758333333 -0.0854082554579 -0.24012221396 0.770930886269 -4.4102268219 -0.0127479704097 -0.157440379262 0.0162333846092 -0.0517856515944
297.9625 -0.266437828541 -0.383327573538 -2.97526478767 2.4627699852 -0.0375954806805 -0.17763698101 0.0179605614394 -0.0503272004426
298.166666667 -0.737241625786 -0.172732785344 3.56793451309 1.217446208 -0.10787614435 -0.175849676132 0.00428409408778 -0.0238396059722
298.370833333 -0.397781282663 -0.152891427279 0.433845490217 -3.26883029938 -0.165540367365 -0.0987146124244 0.0147006278858 -0.0455630011857
298.575 -0.588594257832 0.0236141048372 -3.25391602516 -0.433379024267 -0.151359498501 0.027226453647 0.0410795658827 -0.0115180844441
298.779166667 -0.333460211754 0.28903234005 -0.254028975964 3.01366114616 -0.0753099620342 0.109683901072 0.0687613859773 -0.0797999724746
298.983333333 -0.0397626459599 0.424922257662 3.07435154915 -0.706557154655 0.0308782588691 0.130202353001 0.0526970364153 -0.0625659525394
299.1875 0.059231646359 0.341826379299 -2.39110803604 -2.2201051712 0.111233882606 0.102065265179 0.0243478491902 -0.191440761089
299.391666667 0.351867437363 0.415959537029 0.435568869114 3.16506886482 0.148470446467 0.0975394770503 -0.0858656018972 -0.179070353508
299.595833333 0.350136935711 0.153483405709 1.29200994968 -2.73331332207 0.137062191963 0.129776775837 -0.174027144909 -0.144534632564
299.8 0.340483486652 0.137449771166 -2.12382221222 0.935754418373 0.115992024541 0.156813383102 -0.196038022637 -0.0785372555256
300.004166667 0.237245216966 -0.0074275447987 1.86026251316 -0.0695454776287 0.130828604102 0.198342174292 -0.231843858957 0.0812779590487
300.208333333 0.349793940783 -0.0689940676093 -1.51815700531 -0.635056138039 0.0823775455356 0.270592927933 -0.132421642542 0.159297540784
300.4125 0.0939131528139 -0.162353232503 0.76456707716 1.12440562248 0.0507040135562 0.342976987362 -0.0596833191812 0.223843544722
300.616666667 0.0869203135371 -0.113365374506 -0.0864849537611 -1.20576167107 0.0348184071481 0.403650909662 0.00287704588845 0.207224309444
300.820833333 -0.0395169891417 -0.0874947682023 -0.608600378036 1.16202902794 0.00349877704866 0.419679522514 0.105829939246 0.226896122098
301.025 -0.0299137122929 -0.0446222536266 1.43747639656 -0.698370158672 -0.0598736330867 0.426983445883 0.109773203731 0.13515239954
301.229166667 0.0286727827042 0.0768849626184 -1.67190551758 0.0928035750985 -0.155956283212 0.319491326809 0.178688213229 0.153369739652
301.433333333 0.0915341153741 -0.0312432255596 1.53540790081 0.514899790287 -0.257476598024 0.188302412629 0.126421540976 0.00228288257495
301.6375 0.0761056765914 -0.0230784062296 -0.910748124123 -1.24012649059 -0.321611404419 0.125525474548 0.106650277972 0.0491889789701
301.841666667 0.0700855627656 -0.0509167909622 -0.135481134057 1.35269570351 -0.332046717405 0.121136628091 0.0348833724856 -0.0182988867164
302.045833333 0.107649855316 -0.0887943804264 0.957910895348 -0.621660292149 -0.277667462826 0.180004224181 0.0482282824814 0.064326107502
302.25 -0.075577609241 -0.135672017932 -0.862541913986 -0.438800305128 -0.216628700495 0.28862825036 0.0411817319691 0.0483028404415
302.454166667 -0.000220717600314 -0.0499421991408 -0.0348805524409 0.736828744411 -0.066925264895 0.389140874147 0.0965072140098 0.0749784186482
302.658333333 -0.110689371824 -0.121606089175 0.628230273724 -0.199701324105 0.155204862356 0.387754887342 0.117824278772 0.0015310193412
302.8625 -0.142721384764 0.0102480538189 -0.514089941978 -0.532414615154 0.377622693777 0.335631430149 0.117930434644 -0.058056011796
303.066666667 -0.147345617414 0.0401330664754 -0.370057404041 0.70749527216 0.57303828001 0.321458846331 0.127309471369 -0.0797983705997
303.270833333 -0.0528814159334 0.0456443689764 0.748664617538 -0.0584801696241 0.729529798031 0.267498373985 0.0927741974592 -0.179921761155
303.475 -0.125053375959 0.119351707399 -0.601295351982 -0.70510238409 0.757761955261 0.140834391117 0.0461931452155 -0.14593744278
303.679166667 0.116874016821 0.0866212174296 -0.554900884628 1.13953185081 0.70602786541 -0.186936333776 -0.00666659511626 -0.280257970095
303.883333333 -0.0107667539269 -0.0238649733365 1.39400291443 0.371021777391 0.417496860027 -0.461614578962 -0.130201876163 -0.172158643603
304.0875 -0.00513235712424 0.00711243320256 0.377378225327 -1.64465308189 -0.000337116711307 -0.493964403868 -0.15785472095 -0.209603011608
304.291666667 0.0105983540416 0.012721426785 -1.68540287018 -0.198991045356 -0.277691215277 -0.287598907948 -0.219703674316 -0.0254739262164
304.495833333 -0.0478499270976 -0.0334442146122 -0.0227990224957 1.60007560253 -0.307695388794 -0.0352988503873 -0.0692025274038 -0.0150102600455
304.7 -0.0301956515759 0.0851375833154 1.47795855999 -0.142266064882 -0.293121606112 0.137274667621 -0.0908520296216 0.0157965291291
304.904166667 -0.00988393742591 0.0128576289862 -0.480013310909 -1.62808001041 -0.237060412765 0.225425079465 -0.0228030849248 0.0136392042041
305.108333333 -0.0356877818704 0.122356109321 -1.52110588551 1.03996837139 -0.164098203182 0.230493038893 0.00564213981852 0.0109006250277
305.3125 0.0385255068541 0.103626541793 1.71325266361 1.04521489143 -0.108219154179 0.248721241951 0.00526377093047 -0.0673623010516
305.516666667 0.128595501184 0.159018263221 -0.00952919293195 -2.13252568245 -0.0447979606688 0.255504876375 -0.044164236635 -0.0107515631244
305.720833333 0.195949345827 -0.0337136909366 -2.49250411987 1.35470426083 0.0162384919822 0.242873564363 -0.00692132906988 -0.0619161464274
305.925 0.199177607894 0.0106194261461 2.97259712219 2.26208305359 0.056287266314 0.210011929274 -0.0740376412868 -0.0625461190939
306.129166667 0.215667843819 -0.188731119037 0.521906912327 -4.36737823486 0.0586470812559 0.188389107585 -0.110903024673 -0.0602406077087
306.333333333 0.0678035467863 -0.162553653121 -4.12802648544 1.89440226555 0.0922985300422 0.140906855464 -0.117806687951 0.0303393602371
306.5375 0.0325347855687 -0.153861686587 2.71582722664 4.1959643364 0.130231499672 0.0573208145797 -0.119483560324 0.0401018634439
306.741666667 0.0568178743124 -0.0976747050881 3.97194337845 -3.18475937843 0.125080779195 -0.0197852551937 -0.0720428228378 0.175122499466
306.945833333 0.00887357722968 -0.17717525363 -3.1131670475 -3.95716881752 0.0808413848281 -0.0839514434338 0.0379461124539 0.129230886698
307.15 -0.0488301739097 -0.0530050694942 -4.1717581749 2.99923610687 0.00124627351761 -0.10082565248 0.0950693562627 0.143420279026
307.354166667 -0.0137267755345 -0.0257025547326 2.4506714344 5.26811170578 -0.0710127577186 -0.0481131188571 0.136411845684 0.0674366056919
307.558333333 0.0296854935586 -0.0152421044186 5.59225893021 -1.32007193565 -0.0855690166354 0.0211100578308 0.172274410725 0.0600213482976
307.7625 -0.00942059606314 -0.0821343362331 -1.37192857265 -5.04822301865 -0.0656489357352 0.093758970499 0.138831585646 -0.097193300724
307.966666667 0.0696905553341 0.0249378141016 -3.93796539307 1.84460806847 -0.034355469048 0.121362201869 0.0669131353498 -0.0410060994327
308.170833333 0.0697505623102 -0.186847060919 2.53197717667 2.55661511421 0.0316989198327 0.144214034081 0.0974951758981 -0.108712039888
308.375 -0.0675041228533 -0.107801839709 1.47144055367 -2.72240877151 0.121693067253 0.13344527781 0.00477606477216 -0.11544071883
308.579166667 -0.0579260960221 -0.176195427775 -2.90684437752 -0.620509922504 0.188501358032 0.107421703637 -0.0380489230156 -0.0793932303786
308.783333333 -0.154523953795 -0.160454541445 0.0458914972842 2.92058062553 0.231309905648 0.0653108805418 0.0125890383497 -0.00894260592759
308.9875 -0.233228549361 -0.173400878906 2.80792880058 -0.420294076204 0.231517001987 -0.0214002020657 0.0115361800417 -0.0565629824996
309.191666667 -0.238380983472 -0.042412288487 -0.485768377781 -2.62847042084 0.215492323041 -0.106272183359 0.020190352574 0.0112076411024
309.395833333 -0.188962072134 -0.116416551173 -2.30077195168 0.553453922272 0.130635857582 -0.207963302732 0.0677425190806 -0.0503810569644
309.6 -0.314955979586 0.0482226423919 0.69387871027 2.00582814217 -0.0232447814196 -0.255742639303 0.0578037276864 -0.0679704844952
309.804166667 -0.166530683637 0.124910824001 1.57784020901 -0.742496132851 -0.199384599924 -0.214022949338 0.00737452879548 -0.145483464003
310.008333333 -0.124611400068 0.188364729285 -0.863341987133 -0.995228528976 -0.327768802643 -0.0964183211327 -0.0373704396188 -0.0770080834627
310.2125 -0.0185405630618 0.158866107464 -0.511937201023 1.02169966698 -0.413487106562 -0.0143885668367 -0.0497785508633 -0.142719566822
310.416666667 -0.0318829789758 0.141520053148 0.997874855995 0.369223147631 -0.432434380054 0.0889218226075 -0.14339274168 -0.128123909235
310.620833333 0.0246719215065 0.094417385757 0.236587226391 -0.814329862595 -0.358974665403 0.270435661077 -0.136643409729 -0.089047037065
310.825 0.0218821913004 0.0761488601565 -0.641472458839 -0.10861326009 -0.0951295793056 0.432658523321 -0.138007700443 0.00223223539069
311.029166667 0.0222347509116 0.0309687405825 0.00263583892956 0.473465800285 0.111722834408 0.454041481018 -0.105968944728 0.00497331516817
311.233333333 -0.00153063365724 0.0903561338782 0.471940755844 -0.123244583607 0.316443651915 0.373404413462 -0.121870540082 0.0959463268518
311.4375 0.0669439658523 0.0182328950614 -0.309814810753 -0.481519937515 0.383093595505 0.212906107306 -0.030743798241 0.110247656703
311.641666667 -0.012200275436 0.0499214120209 -0.410029470921 0.50854486227 0.396756947041 0.0518287196755 -0.0554599165916 0.0987318456173
311.845833333 0.104221791029 0.0779086276889 0.80011755228 0.263048171997 0.401518315077 -0.0835108980536 0.0012101540342 0.104309000075
312.05 0.0825147777796 0.0566922910511 -0.0963429883122 -1.03518378735 0.333532720804 -0.139047652483 0.0108099011704 0.105818398297
312.254166667 0.150111198425 0.0386763475835 -1.0882242918 0.574233829975 0.267130345106 -0.144695043564 0.0515411049128 0.0628922358155
312.458333333 0.139711767435 0.0127524789423 1.10011577606 1.07890641689 0.189239755273 -0.160324648023 -0.013917488046 0.0541491247714
312.6625 0.206903517246 -0.0642260834575 1.0507401228 -1.36619508266 0.133541107178 -0.224418863654 0.0475909039378 0.110232755542
312.866666667 0.116982392967 -0.145691514015 -1.46697437763 -1.06448721886 0.0145269725472 -0.306823670864 0.0351737998426 0.0584196895361
313.070833333 0.11246342957 -0.169759377837 -0.912212133408 1.40369522572 -0.184219866991 -0.343603104353 0.054409828037 0.066379532218
313.275 0.0422382317483 -0.202975600958 1.24438977242 0.636779129505 -0.431335151196 -0.293742448092 -0.00829650368541 0.0849379599094
313.479166667 0.0448413081467 -0.21940203011 0.392515808344 -0.93809491396 -0.618293225765 -0.107774481177 0.109331212938 0.130231410265
313.683333333 -0.0959744229913 -0.19077976048 -0.744442462921 -0.200175628066 -0.755754172802 0.139975860715 0.0822457522154 0.0319274030626
313.8875 -0.0512967891991 -0.0947921574116 -0.0946572124958 0.626856327057 -0.834230363369 0.484490185976 0.107200190425 0.157955273986
314.091666667 -0.122216299176 -0.171355456114 0.572257697582 0.0750272870064 -0.589106321335 1.17541885376 0.275525540113 0.0229814201593
314.295833333 -0.171994358301 -0.022329011932 0.139565989375 -0.541421115398 0.355472654104 1.38216340542 0.2469188869 -0.0404005981982
314.5 -0.128537505865 -0.0020578217227 -0.464699357748 -0.230648398399 1.12642347813 0.861022830009 0.246477857232 -0.123704582453
314.704166667 -0.0719537883997 0.0679970011115 -0.261240065098 0.42987075448 1.23067271709 -0.0537267401814 0.149504795671 -0.113939777017
314.908333333 -0.060781121254 -0.0114351483062 0.45020416379 0.319252341986 0.999613106251 -0.567313790321 0.163718521595 -0.224608957767
315.1125 -0.078884549439 0.0788029283285 0.422492086887 -0.533781886101 0.50913053751 -0.941451668739 -0.00632138736546 -0.254431992769
315.316666667 0.0114433923736 -0.00621516210958 -0.615305066109 -0.738531112671 0.0415871888399 -1.02219498158 0.076346680522 -0.284830331802
315.520833333 -0.074334345758 0.00768871186301 -1.21980798244 0.367836207151 -0.5868460536 -0.619756281376 -0.00754738552496 -0.41281530261
315.725 -0.0174101851881 0.00864284299314 -0.0461462475359 1.33445703983 -0.578454136848 0.140022903681 -0.164339199662 -0.302127093077
315.929166667 -0.0835274979472 0.0118271363899 1.37990641594 0.796180069447 -0.0993648171425 0.402549535036 -0.241348937154 -0.118289791048
316.133333333 -0.0286454968154 0.0410823151469 1.24514210224 -0.926754117012 0.309291213751 0.264219909906 -0.164909720421 0.0112565988675
316.3375 -0.0954518616199 -0.0073202601634 -0.302245646715 -1.54294991493 0.427212715149 -0.041647490114 -0.190116643906 0.0281910710037
316.541666667 -0.0988206639886 0.0817845016718 -1.37869167328 -0.843401670456 0.184541881084 -0.303441762924 -0.105372257531 0.0359156467021
316.745833333 -0.051750253886 0.0961806848645 -1.45867431164 1.02077686787 -0.183917015791 -0.255674093962 -0.117670349777 0.0427449829876
316.95 -0.0385459624231 0.103451751173 -0.28346902132 2.01766443253 -0.291917324066 0.0820209234953 -0.0417817570269 0.0961251780391
317.154166667 -0.041101410985 0.164466813207 1.2296359539 1.75924706459 0.026294356212 0.276760905981 -0.0626071691513 -0.0151080917567
317.358333333 0.137293979526 0.184228420258 2.25815558434 0.536009728909 0.266678035259 0.0557453855872 -0.118151165545 0.103977672756
317.5625 0.115411683917 0.0341067649424 2.06720209122 -1.24845933914 0.115952096879 -0.236637800932 0.000164193494129 0.054022256285
317.766666667 0.100538864732 0.0955160260201 0.203877836466 -2.28074288368 -0.186679974198 -0.165874943137 -0.0715449973941 0.0797319710255
317.970833333 0.137476965785 -0.0293831583112 -1.74077963829 -1.01900184155 -0.235386252403 0.119846731424 0.0108151733875 0.088561847806
318.175 0.0853934884071 -0.0244567897171 -1.38230359554 1.05826187134 -0.0328593626618 0.314989566803 -0.0262155812234 0.0838775113225
318.379166667 0.104652322829 -0.110045470297 0.509612619877 1.47224354744 0.269609183073 0.232841536403 0.0444028303027 0.102976202965
318.583333333 -0.0128205735236 -0.07064820081 1.47448086739 0.0176943223923 0.380353748798 -0.0682943761349 0.0311977546662 0.0948023125529
318.7875 0.0711312368512 -0.0903168022633 0.620952546597 -1.31251847744 0.263257205486 -0.341170698404 0.0771965384483 0.125864878297
318.991666667 -0.054663348943 -0.128838628531 -1.04848837852 -0.88528329134 0.00256446539424 -0.443748950958 0.108913309872 0.086335606873
319.195833333 -0.0334704294801 -0.00899651553482 -0.975642979145 0.907517254353 -0.242953851819 -0.370434820652 0.143427014351 0.0394528955221
