!Created with skrf (http://scikit-rf.org).
# GHz S RI R 50.0 
!freq ReS11 ImS11
290.0 -0.05303779 -0.00509489
290.204166667 -0.04932514 0.0332811
290.408333333 -0.02062176 0.05769578
290.6125 0.02303337 0.05430727
290.816666667 0.06360821 0.04118896
291.020833333 0.06996949 3.336204e-05
291.225 0.05310958 -0.03368172
291.429166667 0.02678525 -0.04938938
291.633333333 -0.006915864 -0.05945116
291.8375 -0.03625077 -0.05041764
292.041666667 -0.05500594 -0.02869508
292.245833333 -0.06696383 -0.0122609
292.45 -0.06884916 0.01595068
292.654166667 -0.06423216 0.04210107
292.858333333 -0.03847201 0.05460626
293.0625 -0.002402459 0.06286146
293.266666667 0.0304411 0.05157997
293.470833333 0.04939296 0.03479022
293.675 0.06144812 0.01537394
293.879166667 0.0804005 -0.01107795
294.083333333 0.04761779 -0.03740474
294.2875 0.0009598053 -0.0464735
294.491666667 -0.04167374 -0.03772619
294.695833333 -0.03295146 0.006526429
294.9 -0.002183526 0.008403919
295.104166667 -0.00513366 0.03537591
295.308333333 0.01209994 0.01495796
295.5125 0.01581114 0.01089544
295.716666667 0.03965534 0.006599789
295.920833333 0.04501601 -0.01878971
296.125 0.03720989 -0.06504682
296.329166667 0.009917499 -0.08916954
296.533333333 -0.02536765 -0.105751
296.7375 -0.05657441 -0.08150861
296.941666667 -0.08343548 -0.04296499
297.145833333 -0.1139829 -0.003030253
297.35 -0.1208992 0.04175143
297.554166667 -0.08666925 0.09414361
297.758333333 -0.0269363 0.1344769
297.9625 0.03426205 0.1334248
298.166666667 0.08631244 0.1012496
298.370833333 0.1176806 0.03952518
298.575 0.09763326 -0.04579172
298.779166667 0.04000913 -0.08045084
298.983333333 0.00455626 -0.07189637
299.1875 -0.01356583 -0.05794306
299.391666667 -0.02718102 -0.04419924
299.595833333 -0.04352331 -0.02628633
299.8 -0.0502377 -0.004679104
300.004166667 -0.04102754 0.008585078
300.208333333 -0.03449309 0.02075805
300.4125 -0.01781528 0.02796365
300.616666667 -0.0001300103 0.03075626
300.820833333 0.01522299 0.02237103
301.025 0.02077063 0.008237774
301.229166667 0.02179695 -0.003992197
301.433333333 0.01689693 -0.01508165
301.6375 0.009739133 -0.02148471
301.841666667 0.0002126671 -0.0267022
302.045833333 -0.01140906 -0.02715101
302.25 -0.02566696 -0.02021678
302.454166667 -0.0338151 -0.01121883
302.658333333 -0.04087184 -0.001577285
302.8625 -0.0374437 0.01121676
303.066666667 -0.02342222 0.02562075
303.270833333 -0.006559284 0.02992074
303.475 0.008891533 0.02537598
303.679166667 0.01568679 0.01313096
303.883333333 0.01803088 0.002668773
304.0875 0.01474901 -0.006836571
304.291666667 0.007101046 -0.01580416
304.495833333 -0.004989761 -0.02001561
304.7 -0.01871956 -0.01481526
304.904166667 -0.02664615 0.0006162538
305.108333333 -0.02377342 0.01870614
305.3125 -0.01333211 0.0316699
305.516666667 0.001350182 0.04006708
305.720833333 0.02180812 0.03395737
305.925 0.03963882 0.0172665
306.129166667 0.04388421 -0.006280602
306.333333333 0.04082017 -0.02550499
306.5375 0.03370135 -0.03653109
306.741666667 0.02151412 -0.04813642
306.945833333 0.003632694 -0.05424692
307.15 -0.01200775 -0.0450822
307.354166667 -0.02512976 -0.03297005
307.558333333 -0.03462098 -0.02089056
307.7625 -0.03724155 -0.008495466
307.966666667 -0.03360669 0.005037429
308.170833333 -0.02554442 0.01389203
308.375 -0.01643581 0.01790105
308.579166667 -0.004497532 0.01709863
308.783333333 0.002935734 0.01179992
308.9875 0.004012204 0.004250473
309.191666667 -0.000365584 -0.0009137649
309.395833333 -0.007938192 -0.001982104
309.6 -0.01604433 0.001566748
309.804166667 -0.02125118 0.00990134
310.008333333 -0.02322279 0.02085831
310.2125 -0.01753965 0.03022848
310.416666667 -0.001926302 0.03573063
310.620833333 0.01544135 0.04149912
310.825 0.0322043 0.04847943
311.029166667 0.06029155 0.05093729
311.233333333 0.07267272 0.02630072
311.4375 0.0665379 -0.001470286
311.641666667 0.05976699 -0.02400272
311.845833333 0.04938009 -0.04306484
312.05 0.0256122 -0.05177045
312.254166667 0.004302756 -0.05389505
312.458333333 -0.01343232 -0.04630168
312.6625 -0.02357023 -0.0294975
312.866666667 -0.024462 -0.01511791
313.070833333 -0.02267945 -0.006660903
313.275 -0.01975269 -0.001450807
313.479166667 -0.01736517 0.002875807
313.683333333 -0.01148973 0.003747607
313.8875 -0.009734986 0.003794571
314.091666667 -0.007209758 0.001132151
314.295833333 -0.007820636 0.0005596743
314.5 -0.01011401 0.000728245
314.704166667 -0.01405193 0.003183686
314.908333333 -0.01579405 0.006762763
315.1125 -0.01596807 0.01004015
315.316666667 -0.007722222 0.01399436
315.520833333 -0.001991837 0.01525825
315.725 -0.001109582 0.01974601
315.929166667 0.002141645 0.02811359
316.133333333 0.004073818 0.03577035
316.3375 0.02032016 0.03109635
316.541666667 0.03839583 0.01671119
316.745833333 0.04197879 0.01724297
316.95 0.04741473 -0.0006067365
317.154166667 0.04511615 -0.01697738
317.358333333 0.03416198 -0.0319062
317.5625 0.02533926 -0.03999859
317.766666667 0.01697761 -0.04434542
317.970833333 0.004638464 -0.04754804
318.175 -0.01160121 -0.04618181
318.379166667 -0.02255813 -0.04077712
318.583333333 -0.0351805 -0.02488285
318.7875 -0.04032375 -0.002991926
318.991666667 -0.03716171 0.01503512
319.195833333 -0.02415836 0.03020578
319.4 -0.005430779 0.03566092
319.604166667 0.01167135 0.03119064
319.808333333 0.0236402 0.01865881
320.0125 0.02950769 0.004527883
320.216666667 0.02915074 -0.01205298
320.420833333 0.01867573 -0.02973579
320.625 0.002578757 -0.03856136
320.829166667 -0.01631011 -0.03864665
321.033333333 -0.03713743 -0.03170171
321.2375 -0.05067322 -0.02699823
321.441666667 -0.06132937 -0.004631811
321.645833333 -0.05759618 0.0294907
321.85 -0.04692717 0.05909151
322.054166667 -0.02717687 0.07386752
322.258333333 -0.002432038 0.08180118
322.4625 0.02141067 0.0727841
322.666666667 0.04302537 0.06753002
322.870833333 0.06095389 0.05345432
323.075 0.06836192 0.02246624
323.279166667 0.07044159 -0.008710979
323.483333333 0.06060789 -0.0445908
323.6875 0.03364024 -0.06811327
323.891666667 0.004138393 -0.06702361
324.095833333 -0.02180431 -0.05321672
324.3 -0.01530043 -0.02230036
324.504166667 -0.01325207 -0.007692842
324.708333333 -0.0131044 -0.0002539024
324.9125 -0.01614016 0.01176773
325.116666667 -0.0124986 0.02889398
325.320833333 0.003863059 0.04395993
325.525 0.02658384 0.04740755
325.729166667 0.04838708 0.04024633
325.933333333 0.06353556 0.0246879
326.1375 0.07210282 0.005973822
326.341666667 0.07608592 -0.01736934
326.545833333 0.07054996 -0.04367247
326.75 0.05504622 -0.06642353
326.954166667 0.03013663 -0.08324163
327.158333333 0.004187409 -0.08937868
327.3625 -0.02061398 -0.08624905
327.566666667 -0.04804825 -0.07252011
327.770833333 -0.06379373 -0.05735666
327.975 -0.0792565 -0.01849943
328.179166667 -0.07808251 0.01211008
328.383333333 -0.06622363 0.0359977
328.5875 -0.04728437 0.05506914
328.791666667 -0.02484067 0.06570718
328.995833333 0.006690283 0.06686145
329.2 0.03170678 0.05568396
329.404166667 0.04491531 0.04010745
329.608333333 0.05020732 0.02433137
329.8125 0.04702616 0.0168676
330.016666667 0.04193345 -0.006091265
330.220833333 0.0283236 -0.02439658
330.425 0.009583621 -0.03248385
330.629166667 -0.005453797 -0.03215547
330.833333333 -0.022559 -0.02653698
331.0375 -0.03645944 -0.01406691
331.241666667 -0.04620235 0.004327297
331.445833333 -0.04834636 0.02560213
331.65 -0.04100481 0.04812179
331.854166667 -0.02388866 0.0667748
332.058333333 -0.0003640265 0.07382485
332.2625 0.02664007 0.06784396
332.466666667 0.04729547 0.05212133
332.670833333 0.06143728 0.03378561
332.875 0.07231787 0.007633077
333.079166667 0.07458211 -0.01990996
333.283333333 0.06711752 -0.04867993
333.4875 0.04778471 -0.07220425
333.691666667 0.0152651 -0.08886532
333.895833333 -0.0291388 -0.08825692
334.1 -0.06640197 -0.06959592
334.304166667 -0.08455396 -0.04941871
334.508333333 -0.09519763 -0.01645504
334.7125 -0.09599115 0.01722844
334.916666667 -0.0875944 0.03913775
335.120833333 -0.07453976 0.06018719
335.325 -0.05232866 0.07820188
335.529166667 -0.02774805 0.08823094
335.733333333 -0.006699305 0.08860296
335.9375 0.02679177 0.07555511
336.141666667 0.0474477 0.05818348
336.345833333 0.05942142 0.02344698
336.55 0.06792253 0.01158813
336.754166667 0.043757 -0.006014761
336.958333333 0.025862 -0.03328692
337.1625 0.01931262 -0.03754028
337.366666667 -0.0002793659 -0.03422381
337.570833333 -0.02295926 -0.03011865
337.775 -0.03963383 -0.01615268
337.979166667 -0.04710315 0.006903355
338.183333333 -0.04146837 0.03200939
338.3875 -0.02858973 0.05047078
338.591666667 -0.01411151 0.05977769
338.795833333 0.01192516 0.06349196
339.0 0.03792384 0.05909469
339.204166667 0.05489182 0.04900333
339.408333333 0.070792 0.03148155
339.6125 0.07933719 0.008339368
339.816666667 0.07879474 -0.0175451
340.020833333 0.06941523 -0.04305584
340.225 0.0512113 -0.0643093
340.429166667 0.02619971 -0.08031282
340.633333333 -0.004494765 -0.0846349
340.8375 -0.02908176 -0.07971543
341.041666667 -0.04818235 -0.06308665
341.245833333 -0.06758051 -0.02918747
341.45 -0.07336719 -0.001493709
341.654166667 -0.06791266 0.02661165
341.858333333 -0.05313776 0.05525088
342.0625 -0.03452626 0.0785035
342.266666667 -0.02510964 0.07511991
342.470833333 0.01644555 0.06390692
342.675 0.06978899 0.03156859
342.879166667 0.08534651 0.0297182
343.083333333 0.08386537 0.01382998
343.2875 0.06683712 -0.04313039
343.491666667 0.0354393 -0.07755426
343.695833333 0.01653339 -0.08680322
343.9 -0.003557606 -0.09048512
344.104166667 -0.02507563 -0.08793238
344.308333333 -0.04603725 -0.079532
344.5125 -0.06371906 -0.06532764
344.716666667 -0.08293397 -0.04235982
344.920833333 -0.09166763 -0.01747845
345.125 -0.08719689 0.009716391
345.329166667 -0.07310111 0.03120813
345.533333333 -0.05374055 0.04042141
345.7375 -0.02452844 0.04610978
345.941666667 -0.0009945658 0.05162667
346.145833333 0.01318008 0.04889137
346.35 0.0317161 0.03751016
346.554166667 0.04521615 0.02167237
346.758333333 0.0508519 0.009356074
346.9625 0.04693966 -0.01181019
347.166666667 0.03179622 -0.03281112
347.370833333 0.003000518 -0.04725944
347.575 -0.01663988 -0.04660331
347.779166667 -0.03399201 -0.03545287
347.983333333 -0.04358155 -0.02122358
348.1875 -0.04593237 -0.005455131
348.391666667 -0.04056748 0.01726625
348.595833333 -0.03320404 0.03089353
348.8 -0.0218063 0.03900348
349.004166667 -0.003947539 0.04168617
349.208333333 0.01252563 0.03866378
349.4125 0.0223506 0.02771016
349.616666667 0.02805796 0.01560702
349.820833333 0.03404365 0.00226472
350.025 0.03671471 -0.01321264
350.229166667 0.03448479 -0.02926487
350.433333333 0.0237501 -0.04383134
350.6375 0.007840455 -0.04483465
350.841666667 -0.01058609 -0.0482013
351.045833333 -0.02430445 -0.04439308
351.25 -0.04403507 -0.03247197
351.454166667 -0.06602789 -0.03047157
351.658333333 -0.06445059 -0.01734698
351.8625 -0.05322731 0.02793049
352.066666667 -0.04048955 0.05673501
352.270833333 -0.01958885 0.07830182
352.475 0.01358841 0.08815876
352.679166667 0.0450989 0.08708569
352.883333333 0.06138376 0.08401745
353.0875 0.077002 0.07888502
353.291666667 0.09504466 0.06636859
353.495833333 0.1075996 0.0477641
353.7 0.1146142 0.02194406
353.904166667 0.1135932 -0.01392571
354.108333333 0.1079113 -0.03010728
354.3125 0.08707445 -0.0586543
354.516666667 0.06283864 -0.07677866
354.720833333 0.03360613 -0.09355168
354.925 0.005120717 -0.09934441
355.129166667 -0.005272128 -0.09693173
355.333333333 -0.01528216 -0.08126319
355.5375 -0.04582645 -0.05692043
355.741666667 -0.05376411 -0.04375113
355.945833333 -0.04622383 -0.02163447
356.15 -0.04958315 0.01034373
356.354166667 -0.04189476 0.0319277
356.558333333 -0.03313637 0.03826674
356.7625 -0.01309275 0.04163845
356.966666667 0.01229602 0.03525666
357.170833333 0.03070039 0.01971209
357.375 0.0299962 0.007976118
357.579166667 0.02335536 0.002827136
357.783333333 0.01667897 -0.0005728429
357.9875 0.009958114 -0.005557763
358.191666667 0.001801515 -0.009984958
358.395833333 -0.008945668 -0.01048658
358.6 -0.01799685 -0.007591806
358.804166667 -0.02591757 -0.004165371
359.008333333 -0.03257052 0.001281443
359.2125 -0.0390653 0.009212469
359.416666667 -0.04237596 0.01812654
359.620833333 -0.04088731 0.02876306
359.825 -0.03382891 0.0423336
360.029166667 -0.02753249 0.04745867
360.233333333 -0.02134719 0.04623026
360.4375 -0.01164776 0.04309539
360.641666667 0.0125587 0.04151452
360.845833333 0.03730998 0.02918488
361.05 0.05655174 0.007898424
361.254166667 0.0546489 -0.01052847
361.458333333 0.04221937 -0.04043146
361.6625 0.03300708 -0.05228588
361.866666667 0.008339565 -0.06416146
362.070833333 -0.01708271 -0.06574118
362.275 -0.02968215 -0.0651577
362.479166667 -0.03746007 -0.06449456
362.683333333 -0.052638 -0.04766988
362.8875 -0.06605132 -0.01310789
363.091666667 -0.06492461 0.02543299
363.295833333 -0.06309356 0.0402463
363.5 -0.05658091 0.05000958
363.704166667 -0.04404754 0.05769375
363.908333333 -0.02525107 0.06328949
364.1125 -0.00621903 0.06481323
364.316666667 0.01190191 0.06110069
364.520833333 0.02714543 0.05528942
364.725 0.03482548 0.0526437
364.929166667 0.02522127 0.04355198
365.133333333 0.02417958 0.02932122
365.3375 0.02939546 0.01542471
365.541666667 0.03011886 -0.004234645
365.745833333 0.02420163 -0.02195173
365.95 0.009956125 -0.0347792
366.154166667 -0.006017724 -0.03797693
366.358333333 -0.004705672 -0.03101754
366.5625 -0.02737129 -0.01712689
366.766666667 -0.03561087 0.001932391
366.970833333 -0.03566457 0.01516733
367.175 -0.02769605 0.02781475
367.379166667 -0.01775064 0.03533174
367.583333333 -0.01557098 0.03603163
367.7875 -0.006634933 0.03740022
367.991666667 0.00794475 0.03589046
368.195833333 0.02376332 0.02639435
368.4 0.0297609 0.01727926
368.604166667 0.03214416 0.01118011
368.808333333 0.03356269 0.0005532817
369.0125 0.03189978 -0.01001099
369.216666667 0.02764083 -0.0191531
369.420833333 0.01741035 -0.02911014
369.625 0.007896203 -0.03435591
369.829166667 -0.001793167 -0.03610402
370.033333333 -0.01001534 -0.03258529
370.2375 -0.01829677 -0.02361179
370.441666667 -0.02491399 -0.01434451
370.645833333 -0.02844963 -0.00135153
370.85 -0.02864697 0.007299857
371.054166667 -0.01690053 0.02185667
371.258333333 -0.001499005 0.03445745
371.4625 0.009150995 0.03264135
371.666666667 0.02785424 0.0251544
371.870833333 0.04756329 -0.002506473
372.075 0.04293803 -0.04327133
372.279166667 0.03899785 -0.05467654
372.483333333 0.0410488 -0.05785768
372.6875 0.02203457 -0.06522226
372.891666667 -0.00654177 -0.07346112
373.095833333 0.002853276 -0.07602023
373.3 0.009409092 -0.07901485
373.504166667 0.01061766 -0.08202083
373.708333333 0.002845445 -0.08437486
373.9125 -0.006922689 -0.0842296
374.116666667 -0.0204352 -0.0794192
374.320833333 -0.03229051 -0.07366787
374.525 -0.04175299 -0.06361896
374.729166667 -0.04843315 -0.05249557
374.933333333 -0.04830973 -0.03842899
375.1375 -0.04590604 -0.01941915
375.341666667 -0.04495062 0.003744881
375.545833333 -0.03612707 0.01684751
375.75 -0.02523552 0.02772692
375.954166667 -0.02083735 0.02478216
376.158333333 -0.01574307 0.01484924
376.3625 -0.003020013 0.0127285
376.566666667 0.006379988 0.01044191
376.770833333 0.01018391 0.004952312
376.975 0.008513195 0.003060595
377.179166667 0.005347655 0.005162991
377.383333333 0.002391821 0.007929667
377.5875 0.005673323 0.009771278
377.791666667 0.01485233 0.01147021
377.995833333 0.02333192 0.01260313
378.2 0.02892718 0.01549579
378.404166667 0.03336155 0.01858306
378.608333333 0.03930328 0.01828125
378.8125 0.04588966 0.01645816
379.016666667 0.05267533 0.01186112
379.220833333 0.05897698 0.005843739
379.425 0.06371657 -0.003157763
379.629166667 0.06726597 -0.01334073
379.833333333 0.0693658 -0.0227572
380.0375 0.07179623 -0.0248823
380.241666667 0.06555109 -0.02482988
380.445833333 0.05084087 -0.04415063
380.65 0.03912767 -0.06129286
380.854166667 0.03141651 -0.06513264
381.058333333 0.02145947 -0.06140262
381.2625 0.001203248 -0.04808709
381.466666667 -0.03085457 -0.042135
381.670833333 -0.05345412 -0.02375991
381.875 -0.06483702 0.00728886
382.079166667 -0.05666704 0.04120053
382.283333333 -0.03415631 0.06467231
382.4875 -0.01422753 0.07218125
382.691666667 -0.01341169 0.07077467
382.895833333 -0.01337973 0.06798546
383.1 0.02104923 0.05838218
383.304166667 0.0474364 0.04042527
383.508333333 0.04647659 0.03432918
383.7125 0.04359371 0.02988427
383.916666667 0.04100859 0.02532075
384.120833333 0.03907359 0.01974527
384.325 0.03611057 0.01511234
384.529166667 0.03150261 0.01204953
384.733333333 0.02709871 0.009277333
384.9375 0.02206398 0.007950507
385.141666667 0.01776105 0.006977457
385.345833333 0.01515216 0.007445528
385.55 0.0144531 0.00841356
385.754166667 0.01486721 0.01066254
385.958333333 0.01643869 0.012999
386.1625 0.01721238 0.01499095
386.366666667 0.01955372 0.01280444
386.570833333 0.02501078 0.007691135
386.775 0.03101069 0.001759957
386.979166667 0.03478099 -0.008344545
387.183333333 0.03579599 -0.01648985
387.3875 0.03220934 -0.02892026
387.591666667 0.01889357 -0.03872077
387.795833333 -0.002103019 -0.05134267
388.0 -0.01427285 -0.05719155
388.204166667 -0.01650159 -0.06171724
388.408333333 -0.0199393 -0.06351395
388.6125 -0.03469011 -0.05949059
388.816666667 -0.03983906 -0.05823253
389.020833333 -0.04775183 -0.05555537
389.225 -0.05469954 -0.05196523
389.429166667 -0.06251246 -0.04442174
389.633333333 -0.07012975 -0.03417745
389.8375 -0.07571565 -0.01865731
390.041666667 -0.07712255 -0.008284068
390.245833333 -0.0741474 0.0004332048
390.45 -0.07006395 0.009334853
390.654166667 -0.06417953 0.01586859
390.858333333 -0.05591707 0.02320408
391.0625 -0.04547895 0.02932356
391.266666667 -0.03264718 0.03560436
391.470833333 -0.01881115 0.03882916
391.675 -0.004370455 0.03921546
391.879166667 0.01037221 0.03555931
392.083333333 0.02440241 0.02592723
392.2875 0.03235877 0.01203365
392.491666667 0.03234391 -0.005638373
392.695833333 0.02192163 -0.02186182
392.9 0.009540575 -0.0279844
393.104166667 0.001730967 -0.02746319
393.308333333 -0.01284602 -0.0203105
393.5125 -0.01408311 -0.01413197
393.716666667 -0.01164921 -0.009730834
393.920833333 -0.009005038 -0.005829274
394.125 -0.006319253 -0.001783695
394.329166667 -0.002942245 0.002050676
394.533333333 0.001616813 0.004807774
394.7375 0.006531842 0.006569804
394.941666667 0.01233094 0.007247891
395.145833333 0.01887353 0.005625063
395.35 0.02465787 0.0009213195
395.554166667 0.02821845 -0.006593067
395.758333333 0.02982466 -0.01454558
395.9625 0.02788218 -0.02334124
396.166666667 0.02283165 -0.0304889
396.370833333 0.01236531 -0.03806129
396.575 0.0009116512 -0.04153045
396.779166667 -0.01211116 -0.04131518
396.983333333 -0.02506265 -0.03732001
397.1875 -0.03715198 -0.02897369
397.391666667 -0.04730825 -0.01456971
397.595833333 -0.05203377 0.002065267
397.8 -0.05018019 0.01964462
398.004166667 -0.04094058 0.03651468
398.208333333 -0.02328469 0.05288693
398.4125 -0.0110744 0.06082502
398.616666667 0.003934351 0.06563505
398.820833333 0.01729755 0.06844046
399.025 0.0326588 0.06776892
399.229166667 0.04890371 0.06311561
399.433333333 0.06302998 0.05302421
399.6375 0.07161708 0.04096596
399.841666667 0.07591934 0.02683294
400.045833333 0.07699288 0.01045794
400.25 0.07486187 -0.009134025
400.454166667 0.06844454 -0.02683268
400.658333333 0.05865716 -0.0414592
400.8625 0.04716903 -0.05216591
401.066666667 0.03543059 -0.05956699
401.270833333 0.02308113 -0.06389238
401.475 0.01067825 -0.06475401
401.679166667 -0.002013237 -0.0625826
401.883333333 -0.01430251 -0.05729268
402.0875 -0.02433566 -0.04884373
402.291666667 -0.03239272 -0.03826592
402.495833333 -0.04059479 -0.02332346
402.7 -0.04459229 -0.004516037
402.904166667 -0.0405985 0.01609265
403.108333333 -0.0276599 0.03269503
403.3125 -0.01542622 0.03869871
403.516666667 0.006288654 0.03858809
403.720833333 0.02680741 0.02735026
403.925 0.03205186 0.01503252
404.129166667 0.03055262 0.007331136
404.333333333 0.02715071 0.002941785
404.5375 0.02411237 0.0001107175
404.741666667 0.02116822 -0.003173897
404.945833333 0.0177362 -0.006901509
405.15 0.01326453 -0.01074244
405.354166667 0.007087952 -0.01411673
