!Created with skrf (http://scikit-rf.org).
# GHz S RI R 50.0 
!freq ReS11 ImS11
290.0 0.004575865 -0.00457128
290.204166667 -0.04679203 0.03100021
290.408333333 -0.03597408 0.03395223
290.6125 -0.08951966 0.08148534
290.816666667 -0.02359485 0.04880005
291.020833333 0.01090763 0.04921488
291.225 0.0225979 0.04127323
291.429166667 0.0326918 0.04495765
291.633333333 0.0435045 0.01726715
291.8375 0.05492705 -0.00641878
292.041666667 0.03000925 -0.02428184
292.245833333 0.01618732 -0.04561831
292.45 -0.01016787 -0.04536943
292.654166667 -0.04044932 -0.03892608
292.858333333 -0.06428686 -0.01285313
293.0625 -0.07391604 0.01330284
293.266666667 -0.07216145 0.04114879
293.470833333 -0.06130601 0.04609065
293.675 -0.0299235 0.07752139
293.879166667 0.009784785 0.04085797
294.083333333 0.01905959 0.02276589
294.2875 0.01301116 0.02181251
294.491666667 -0.006712057 0.03229104
294.695833333 0.09707331 0.01044919
294.9 0.02294142 -0.04340013
295.104166667 0.03675791 -0.006038218
295.308333333 -0.01464582 -0.04607653
295.5125 0.03463872 0.04237738
295.716666667 -0.006427202 0.002259327
295.920833333 -0.001970805 -0.004663699
296.125 -0.01555785 0.02065257
296.329166667 -0.01468459 0.01073101
296.533333333 -0.004949088 0.0197169
296.7375 0.01064106 0.01878019
296.941666667 0.008076951 -0.007542223
297.145833333 0.005057761 -0.008450502
297.35 0.004617006 -0.01015091
297.554166667 -0.004367962 -0.01218678
297.758333333 -0.01539805 -0.005764316
297.9625 -0.01400172 -0.0003216961
298.166666667 -0.009418756 -4.900591e-05
298.370833333 -0.01014175 0.01154726
298.575 -0.004203511 0.01904612
298.779166667 0.004332237 0.02561207
298.983333333 0.01790883 0.02845043
299.1875 0.02669865 0.02066545
299.391666667 0.03007596 0.002959668
299.595833333 0.0237065 -0.01237266
299.8 0.01267936 -0.02706183
300.004166667 -0.002151487 -0.03127937
300.208333333 -0.01958027 -0.02027098
300.4125 -0.02776253 -0.004006363
300.616666667 -0.02833535 0.006982092
300.820833333 -0.02090767 0.01792475
301.025 -0.007197491 0.02458589
301.229166667 0.006234503 0.03257873
301.433333333 0.02878848 0.02951073
301.6375 0.04288392 0.002181337
301.841666667 0.04165806 -0.02165836
302.045833333 0.03619392 -0.04249348
302.25 0.0257152 -0.053801
302.454166667 0.001938049 -0.06851985
302.658333333 -0.02558272 -0.06075446
302.8625 -0.03944872 -0.03616033
303.066666667 -0.04188886 -0.00719791
303.270833333 -0.03885582 0.01120178
303.475 -0.02916562 0.0179596
303.679166667 -0.02080071 0.02367638
303.883333333 -0.01199653 0.03137156
304.0875 -0.001745985 0.03563561
304.291666667 0.001113824 0.03612892
304.495833333 0.008254837 0.03639614
304.7 0.01563706 0.02668671
304.904166667 0.0169219 0.01307389
305.108333333 0.01601784 0.003996765
305.3125 0.01126828 -0.0007522968
305.516666667 0.006934015 -0.001555992
305.720833333 0.003964433 -0.0004042276
305.925 0.00305264 0.0004527754
306.129166667 0.003055332 0.001539364
306.333333333 0.00422254 0.002630564
306.5375 0.00647471 0.001488869
306.741666667 0.007787074 -0.001335471
306.945833333 0.009373742 -0.004907189
307.15 0.01089261 -0.01100021
307.354166667 0.01076231 -0.01650615
307.558333333 0.003505091 -0.01981612
307.7625 -0.001016532 -0.01630081
307.966666667 -0.008241721 -0.01713878
308.170833333 -0.01183932 -0.01862547
308.375 -0.01493246 -0.01709799
308.579166667 -0.01749594 -0.01159874
308.783333333 -0.01830967 -0.004933223
308.9875 -0.02018251 0.0009559098
309.191666667 -0.01828622 0.01127733
309.395833333 -0.01297308 0.01798461
309.6 -0.007944942 0.02069233
309.804166667 -0.00397634 0.02171525
310.008333333 -1.108451e-05 0.0224242
310.2125 0.006021799 0.01975527
310.416666667 0.01299944 0.01611012
310.620833333 0.0154979 0.01142956
310.825 0.01498879 0.008461395
311.029166667 0.01172426 0.00485869
311.233333333 0.00794585 0.005458693
311.4375 0.005190288 0.009412704
311.641666667 0.004492321 0.01387524
311.845833333 0.005040445 0.01415792
312.05 0.008919136 0.01636017
312.254166667 0.01574712 0.01604186
312.458333333 0.02079153 0.01204031
312.6625 0.0272526 0.005383131
312.866666667 0.02877037 -0.003578843
313.070833333 0.0238166 -0.01321656
313.275 0.01623938 -0.0188621
313.479166667 0.008172932 -0.0251161
313.683333333 -0.002900273 -0.02888221
313.8875 -0.01482428 -0.02289534
314.091666667 -0.01985158 -0.01330323
314.295833333 -0.01992347 -0.002953989
314.5 -0.01713088 0.005053981
314.704166667 -0.01020143 0.01123654
314.908333333 0.001346911 0.01326493
315.1125 0.01097305 0.007057231
315.316666667 0.01630551 -0.002607776
315.520833333 0.01605339 -0.01659696
315.725 0.008640509 -0.03318879
315.929166667 -0.01067404 -0.03584664
316.133333333 -0.02664569 -0.02787317
316.3375 -0.03839601 -0.017922
316.541666667 -0.05290797 0.0009903357
316.745833333 -0.05083573 0.02475111
316.95 -0.0373492 0.03819181
317.154166667 -0.02688766 0.04965308
317.358333333 -0.007823859 0.05576326
317.5625 0.01519849 0.05635126
317.766666667 0.03816673 0.05225515
317.970833333 0.05210913 0.04320228
318.175 0.0573546 0.02351081
318.379166667 0.056611 0.0007540525
318.583333333 0.0526499 -0.01493052
318.7875 0.03511694 -0.0324427
318.991666667 0.01367432 -0.0435507
319.195833333 -0.006389534 -0.04376059
319.4 -0.02498379 -0.03751357
319.604166667 -0.04025097 -0.02232522
319.808333333 -0.04458369 -0.002068978
320.0125 -0.03951677 0.01769843
320.216666667 -0.02781095 0.03739621
320.420833333 -0.009774765 0.0532618
320.625 0.01515956 0.0538216
320.829166667 0.03760247 0.03775047
321.033333333 0.05081201 0.01861084
321.2375 0.0587937 -0.003777595
321.441666667 0.06411427 -0.009799793
321.645833333 0.03945323 -0.03825302
321.85 0.02011803 -0.05683633
322.054166667 -0.001853523 -0.06476172
322.258333333 -0.02827036 -0.06634364
322.4625 -0.05883892 -0.04879558
322.666666667 -0.081375 -0.01857479
322.870833333 -0.08677675 0.00774753
323.075 -0.07818407 0.04255798
323.279166667 -0.06007206 0.06492967
323.483333333 -0.03580224 0.0838791
323.6875 -0.00598587 0.09127359
323.891666667 0.02676939 0.08833616
324.095833333 0.0527298 0.06753483
324.3 0.06581628 0.04450284
324.504166667 0.07553273 0.02037349
324.708333333 0.05995372 -0.004416779
324.9125 0.04252749 -0.02700029
325.116666667 0.02232837 -0.04106061
325.320833333 0.0005125054 -0.0443588
325.525 -0.02105829 -0.03606325
325.729166667 -0.03566317 -0.02051374
325.933333333 -0.04195399 -0.003794592
326.1375 -0.04281661 0.01037418
326.341666667 -0.04046505 0.02497504
326.545833333 -0.03293446 0.04053326
326.75 -0.01761127 0.05430961
326.954166667 0.004015138 0.06237457
327.158333333 0.03032 0.06175693
327.3625 0.05626995 0.0492775
327.566666667 0.07455363 0.02926113
327.770833333 0.08296495 -0.002954034
327.975 0.08696801 -0.01152006
328.179166667 0.07718465 -0.04935569
328.383333333 0.05885357 -0.07856293
328.5875 0.02514966 -0.09673984
328.791666667 -0.01449118 -0.1000891
328.995833333 -0.05025275 -0.08599143
329.2 -0.07882915 -0.06423659
329.404166667 -0.09369416 -0.03517507
329.608333333 -0.09884117 0.003839308
329.8125 -0.08830091 0.04018932
330.016666667 -0.05916502 0.06807336
330.220833333 -0.02342442 0.08724748
330.425 0.01460274 0.09141538
330.629166667 0.04637698 0.07815244
330.833333333 0.07058337 0.04740288
331.0375 0.07869488 0.008968272
331.241666667 0.07090247 -0.0281699
331.445833333 0.04851082 -0.05712545
331.65 0.01568691 -0.07396629
331.854166667 -0.02117724 -0.07327613
332.058333333 -0.05532928 -0.05627345
332.2625 -0.07821346 -0.02585518
332.466666667 -0.08774623 0.01255044
332.670833333 -0.08466459 0.05330089
332.875 -0.06729607 0.09907139
333.079166667 -0.03178159 0.1478637
333.283333333 0.01357623 0.1775147
333.4875 0.05170241 0.1647332
333.691666667 0.07845816 0.1154715
333.895833333 0.09175767 0.06306724
334.1 0.09784267 0.02433341
334.304166667 0.09940822 -0.005264349
334.508333333 0.09517179 -0.0296066
334.7125 0.08350736 -0.05639439
334.916666667 0.06729151 -0.07502165
335.120833333 0.03551092 -0.09329446
335.325 -0.008599724 -0.09942266
335.529166667 -0.04096228 -0.09332138
335.733333333 -0.0780317 -0.06168012
335.9375 -0.08724734 -0.04424
336.141666667 -0.09220946 0.005985251
336.345833333 -0.08314808 0.04440434
336.55 -0.05676154 0.07363375
336.754166667 -0.03472215 0.08007724
336.958333333 0.01022577 0.07888561
337.1625 0.04560443 0.06350262
337.366666667 0.06526407 0.04307419
337.570833333 0.07969165 0.01162499
337.775 0.07879729 -0.02212206
337.979166667 0.0632811 -0.05402222
338.183333333 0.03576775 -0.07597834
338.3875 0.001335057 -0.08634996
338.591666667 -0.03331559 -0.08229072
338.795833333 -0.06639272 -0.06081276
339.0 -0.08683313 -0.03239492
339.204166667 -0.08968293 -0.007103
339.408333333 -0.08633363 0.01853061
339.6125 -0.07700513 0.04127076
339.816666667 -0.05979373 0.06441823
340.020833333 -0.03193325 0.08277933
340.225 -0.002480683 0.08943778
340.429166667 0.03002064 0.08380676
340.633333333 0.05802644 0.06690066
340.8375 0.07736655 0.0445848
341.041666667 0.08982692 0.02029565
341.245833333 0.09506184 -0.008245094
341.45 0.09353258 -0.04238603
341.654166667 0.08343808 -0.0710512
341.858333333 0.06206741 -0.09363928
342.0625 0.03409729 -0.1107896
342.266666667 -0.003371499 -0.1184602
342.470833333 -0.03973387 -0.1068112
342.675 -0.06825199 -0.07618235
342.879166667 -0.07554055 -0.04940123
343.083333333 -0.07523751 -0.01741363
343.2875 -0.07154553 0.02257408
343.491666667 -0.06267752 0.04923354
343.695833333 -0.0410629 0.06590738
343.9 -0.01349975 0.07465933
344.104166667 0.01789785 0.07427493
344.308333333 0.051076 0.0591233
344.5125 0.07590677 0.02823058
344.716666667 0.08391284 -0.002204265
344.920833333 0.08054148 -0.03414157
345.125 0.05773496 -0.06959791
345.329166667 0.02205322 -0.08995935
345.533333333 -0.01882142 -0.09280363
345.7375 -0.04980841 -0.08053306
345.941666667 -0.07605314 -0.0525699
346.145833333 -0.089656 -0.02550207
346.35 -0.09697177 0.002625822
346.554166667 -0.09794778 0.03600251
346.758333333 -0.08759832 0.07078826
346.9625 -0.0637325 0.09967516
347.166666667 -0.02585059 0.1149002
347.370833333 0.02246998 0.1191756
347.575 0.04905436 0.1061458
347.779166667 0.07123362 0.08688693
347.983333333 0.09306058 0.05930149
348.1875 0.1059382 0.02815037
348.391666667 0.1109923 -0.007156645
348.595833333 0.1086528 -0.03318577
348.8 0.09160881 -0.06042729
349.004166667 0.0519233 -0.09333252
349.208333333 0.008776788 -0.102497
349.4125 -0.009131772 -0.09548564
349.616666667 -0.03761182 -0.08422111
349.820833333 -0.07068008 -0.05919096
350.025 -0.08645057 -0.02347353
350.229166667 -0.08505975 0.01283035
350.433333333 -0.06932132 0.04637843
350.6375 -0.04344074 0.06915022
350.841666667 -0.007061514 0.08328463
351.045833333 0.02330601 0.0776514
351.25 0.05093499 0.05691677
351.454166667 0.05694936 0.0378917
351.658333333 0.06994325 0.001018633
351.8625 0.0717447 -0.03753576
352.066666667 0.06031548 -0.05335173
352.270833333 0.0392678 -0.07259756
352.475 0.008992989 -0.08603722
352.679166667 -0.02296985 -0.08620688
352.883333333 -0.04227507 -0.07871946
353.0875 -0.06145255 -0.06757394
353.291666667 -0.08144888 -0.04748882
353.495833333 -0.09291358 -0.00495403
353.7 -0.09104646 0.01297065
353.904166667 -0.0927024 0.02732941
354.108333333 -0.07676288 0.05797646
354.3125 -0.05532809 0.08158588
354.516666667 -0.01537029 0.0995035
354.720833333 0.01763585 0.09666777
354.925 0.04314359 0.08053349
355.129166667 0.0636377 0.06113248
355.333333333 0.07823923 0.03615625
355.5375 0.0859265 0.005382542
355.741666667 0.08070741 -0.01909248
355.945833333 0.06328969 -0.0474343
356.15 0.0387098 -0.06763679
356.354166667 0.01281288 -0.0752288
356.558333333 -0.01368991 -0.07298084
356.7625 -0.03617278 -0.06207594
356.966666667 -0.05322602 -0.04161606
357.170833333 -0.0660352 -0.01693294
357.375 -0.06593633 0.001846764
357.579166667 -0.0596726 0.0246026
357.783333333 -0.04636908 0.04408991
357.9875 -0.02328627 0.06062192
358.191666667 0.01428004 0.06180932
358.395833333 0.03113262 0.05149487
358.6 0.03158771 0.05114132
358.804166667 0.05436195 0.03770188
359.008333333 0.06945065 0.007863262
359.2125 0.06821667 -0.02284481
359.416666667 0.05367756 -0.0505881
359.620833333 0.03445241 -0.06732428
359.825 0.01049084 -0.07738031
360.029166667 -0.01769164 -0.07939326
360.233333333 -0.0439721 -0.07310434
360.4375 -0.06824037 -0.05714505
360.641666667 -0.08277456 -0.03339685
360.845833333 -0.08753463 -0.007744125
361.05 -0.08459163 0.01585877
361.254166667 -0.07815273 0.04122954
361.458333333 -0.06415521 0.06505608
361.6625 -0.03792386 0.0864396
361.866666667 -0.01249919 0.09233864
362.070833333 0.01165833 0.08719354
362.275 0.03499131 0.07419829
362.479166667 0.05850698 0.05415845
362.683333333 0.07195725 0.03049671
362.8875 0.07658269 -0.008080677
363.091666667 0.07233491 -0.03322488
363.295833333 0.06756405 -0.03269316
363.5 0.05285532 -0.05239843
363.704166667 0.02687662 -0.06843441
363.908333333 -0.008256332 -0.07407591
364.1125 -0.04173349 -0.05932047
364.316666667 -0.05721581 -0.04141634
364.520833333 -0.06532504 -0.01933201
364.725 -0.06594446 0.007306456
364.929166667 -0.06035985 0.03465449
365.133333333 -0.04413762 0.05752862
365.3375 -0.01523907 0.07246881
365.541666667 0.01445613 0.07403433
365.745833333 0.03927394 0.06602638
365.95 0.05966739 0.04946519
366.154166667 0.07398215 0.02747896
366.358333333 0.0795491 0.00447593
366.5625 0.0723951 -0.03310208
366.766666667 0.06653605 -0.05196787
366.970833333 0.05455229 -0.06527204
367.175 0.03172 -0.0786598
367.379166667 0.001322016 -0.08334397
367.583333333 -0.02060872 -0.07850861
367.7875 -0.04504593 -0.06526458
367.991666667 -0.06266501 -0.04661541
368.195833333 -0.0742873 -0.02612326
368.4 -0.07303707 -0.026121
368.604166667 -0.07768209 0.003377909
368.808333333 -0.06500738 0.04100654
369.0125 -0.04547343 0.05694274
369.216666667 -0.03525123 0.06105788
369.420833333 -0.009788499 0.07004897
369.625 0.02021617 0.06554976
369.829166667 0.03937754 0.0532371
370.033333333 0.05153551 0.03492356
370.2375 0.05887289 0.01104765
370.441666667 0.06014738 -0.01063193
370.645833333 0.04969691 -0.03365141
370.85 0.02806473 -0.05129327
371.054166667 0.00169822 -0.05913698
371.258333333 -0.01867413 -0.05700712
371.4625 -0.0407189 -0.04837011
371.666666667 -0.05564558 -0.03526838
371.870833333 -0.0606891 -9.690732e-05
372.075 -0.06216193 0.01688701
372.279166667 -0.06137101 0.03159393
372.483333333 -0.05237893 0.04896965
372.6875 -0.01692886 0.07276421
372.891666667 -0.004827122 0.07689355
373.095833333 -9.016239e-05 0.07829271
373.3 0.0309508 0.0758832
373.504166667 0.05671093 0.06403616
373.708333333 0.08002399 0.02943748
373.9125 0.08392279 0.01529152
374.116666667 0.08873381 -0.01159132
374.320833333 0.08085461 -0.03914438
374.525 0.0708335 -0.05456439
374.729166667 0.05632539 -0.06791145
374.933333333 0.03744186 -0.0775568
375.1375 0.009022162 -0.08300769
375.341666667 -0.02001623 -0.07835133
375.545833333 -0.03874422 -0.06809743
375.75 -0.05462039 -0.05162055
375.954166667 -0.06003428 -0.03739006
376.158333333 -0.06267107 -0.01380261
376.3625 -0.05439892 0.01785617
376.566666667 -0.03791912 0.03617246
376.770833333 -0.02341531 0.04433575
376.975 -0.01111564 0.0466298
377.179166667 -0.001343659 0.04354304
377.383333333 0.02311449 0.03293533
377.5875 0.03750024 0.01582449
377.791666667 0.04119698 0.00320956
377.995833333 0.0412205 -0.0104386
378.2 0.03801014 -0.02158287
378.404166667 0.02639717 -0.03768406
378.608333333 0.01020344 -0.04981154
378.8125 -0.01028015 -0.05462113
379.016666667 -0.03147222 -0.05183259
379.220833333 -0.05126487 -0.04016603
379.425 -0.06481701 -0.0241401
379.629166667 -0.07257555 -0.003220432
379.833333333 -0.07407911 0.01815673
380.0375 -0.07105324 0.03677616
380.241666667 -0.06528479 0.05354397
380.445833333 -0.04673067 0.07439343
380.65 -0.01927752 0.08614834
380.854166667 0.006191152 0.08753592
381.058333333 0.03986674 0.07751572
381.2625 0.07026485 0.05191352
381.466666667 0.08286257 0.03290644
381.670833333 0.08988114 0.007673567
381.875 0.08997066 -0.01914499
382.079166667 0.08156847 -0.04423098
382.283333333 0.06640605 -0.06382544
382.4875 0.04820711 -0.07717159
382.691666667 0.02544713 -0.08420905
382.895833333 -0.01537994 -0.08253533
383.1 -0.03412962 -0.07420128
383.304166667 -0.05273845 -0.05845245
383.508333333 -0.05275583 -0.04801989
383.7125 -0.05760027 -0.02944563
383.916666667 -0.06031518 -0.008310725
384.120833333 -0.0544603 0.00982374
384.325 -0.04472765 0.02197053
384.529166667 -0.02995755 0.0303911
384.733333333 -0.01304927 0.03382594
384.9375 0.00464151 0.02971017
385.141666667 0.01487793 0.02075306
385.345833333 0.02248952 0.006749327
385.55 0.02248735 -0.007824637
385.754166667 0.01731055 -0.02008323
385.958333333 0.00869958 -0.02878194
386.1625 -0.005053096 -0.0334335
386.366666667 -0.01913743 -0.03231282
386.570833333 -0.03485483 -0.02487828
386.775 -0.04464743 -0.01641614
386.979166667 -0.04955918 -0.006115582
387.183333333 -0.05136845 0.005029283
387.3875 -0.04794947 0.02648315
387.591666667 -0.04228131 0.04566961
387.795833333 -0.03901278 0.05395408
388.0 -0.03443657 0.0620995
388.204166667 -0.01375542 0.07260202
388.408333333 0.008961564 0.07483345
388.6125 0.02650959 0.06952461
388.816666667 0.03038507 0.06886637
389.020833333 0.05237252 0.05652724
389.225 0.06752555 0.03706584
389.429166667 0.07616112 0.01008694
389.633333333 0.07476632 -0.01046489
389.8375 0.07014947 -0.02540658
390.041666667 0.06286077 -0.03794337
390.245833333 0.05422656 -0.04779059
390.45 0.03446776 -0.0609145
390.654166667 0.01573049 -0.06500693
390.858333333 -0.003233335 -0.0628989
391.0625 -0.02008475 -0.05535926
391.266666667 -0.03152861 -0.04557281
391.470833333 -0.03990756 -0.03513735
391.675 -0.04498271 -0.02407604
391.879166667 -0.04737962 -0.01269164
392.083333333 -0.04649663 -0.001108103
392.2875 -0.04225413 0.007881444
392.491666667 -0.03614644 0.01348046
392.695833333 -0.02729301 0.02070336
392.9 -0.02081622 0.02325987
393.104166667 -0.01272084 0.02383142
393.308333333 -0.003288622 0.02311992
393.5125 -0.001811557 0.01886003
393.716666667 0.002577411 0.01410479
393.920833333 0.005087974 0.008189325
394.125 0.005184205 0.0007425309
394.329166667 0.001472467 -0.004529676
394.533333333 -0.003682439 -0.008629785
394.7375 -0.01073385 -0.01050513
394.941666667 -0.018765 -0.009140682
395.145833333 -0.02639372 -0.004721876
395.35 -0.03285531 0.00317934
395.554166667 -0.0361725 0.01514794
395.758333333 -0.034617 0.02858006
395.9625 -0.03061094 0.03993362
396.166666667 -0.02115908 0.05137436
396.370833333 -0.005328825 0.05926656
396.575 0.013553 0.06116412
396.779166667 0.03335213 0.05614377
396.983333333 0.05150903 0.04428827
397.1875 0.0652578 0.02606937
397.391666667 0.07166587 0.007302261
397.595833333 0.0728227 -0.01179192
397.8 0.06794219 -0.02992668
398.004166667 0.05672823 -0.04859675
398.208333333 0.04218402 -0.06723495
398.4125 0.02808683 -0.07558738
398.616666667 0.003226477 -0.08018062
398.820833333 -0.01769507 -0.07729011
399.025 -0.03403105 -0.07004823
399.229166667 -0.04609937 -0.06175912
399.433333333 -0.05632739 -0.05233296
399.6375 -0.06898967 -0.03437432
399.841666667 -0.07530396 -0.01282123
400.045833333 -0.07335677 0.0117379
400.25 -0.06296041 0.03366268
400.454166667 -0.04691252 0.04961949
400.658333333 -0.02696588 0.05958589
400.8625 -0.004366718 0.06198176
401.066666667 0.01763173 0.05619505
401.270833333 0.03398773 0.0440019
401.475 0.04536252 0.02645379
401.679166667 0.04943328 0.00655374
401.883333333 0.04594528 -0.01303084
402.0875 0.03549732 -0.02995624
402.291666667 0.01990182 -0.04125792
402.495833333 0.001940195 -0.04515516
402.7 -0.01564039 -0.0422805
402.904166667 -0.02953042 -0.03463892
403.108333333 -0.03921544 -0.02495322
403.3125 -0.04748409 -0.01012956
403.516666667 -0.04872789 0.01113122
403.720833333 -0.04474501 0.02821876
403.925 -0.03743147 0.03936833
404.129166667 -0.0258244 0.04863652
404.333333333 -0.01202722 0.05416225
404.5375 0.002708208 0.05545819
404.741666667 0.01606367 0.05282665
404.945833333 0.02865636 0.04611372
405.15 0.03912377 0.03486317
405.354166667 0.04541719 0.02077514
405.558333333 0.04719124 0.007036582
405.7625 0.04506588 -0.0070046
