!Created with skrf (http://scikit-rf.org).
# GHz S RI R 50.0 
!freq ReS11 ImS11 ReS21 ImS21 ReS12 ImS12 ReS22 ImS22
324.9125 0.180114974659 -0.0466504386125 0.409056695451 -0.341324033218 0.409056695451 -0.341324033218 -0.604409104815 -0.211098382015
325.116666667 0.0481591317691 -0.0958668180833 0.229336275245 -0.517075805058 0.229336275245 -0.517075805058 -0.53805868735 -0.255063556149
325.320833333 -0.0396173849481 -0.00945330740705 0.0670337150262 0.597530553346 0.0670337150262 0.597530553346 -0.489738588159 -0.270987405482
325.525 -0.00402728662877 0.0856766393143 0.353926424944 0.510984501855 0.353926424944 0.510984501855 -0.483783384321 -0.239512631801
325.729166667 0.101946777586 0.0880323767318 0.59152225394 0.279525413365 0.59152225394 0.279525413365 -0.403443911696 -0.225759158303
325.933333333 0.153935596648 -0.0161299649525 0.690918607339 -0.0985722246925 0.690918607339 -0.0985722246925 -0.303150217373 -0.222108480511
326.1375 0.0886825559798 -0.108311738523 0.533247305436 -0.50519987909 0.533247305436 -0.50519987909 -0.229977793941 -0.182074529233
326.341666667 0.00666419020063 -0.100864546936 0.157903312369 -0.757650731006 0.157903312369 -0.757650731006 -0.0865832679155 -0.13005500281
326.545833333 -0.0222533072966 -0.0706582042156 0.290955939589 0.746163163733 0.290955939589 0.746163163733 0.0205130109809 -0.144010241131
326.75 -0.0414659850308 -0.0420679471849 0.635763504853 0.496037116957 0.635763504853 0.496037116957 -0.0131666736311 -0.145912562594
326.954166667 -0.0214253221005 0.0243710385711 0.767025352857 0.131724984552 0.767025352857 0.131724984552 -0.105183930872 -0.0844112854592
327.158333333 0.0803670227411 0.0340807880568 0.693272909974 -0.204360857221 0.693272909974 -0.204360857221 -0.180721734503 -0.0783940033998
327.3625 0.154449443056 -0.0910216086367 0.497009411426 -0.436599410734 0.497009411426 -0.436599410734 -0.312052506168 -0.12470257982
327.566666667 0.0376176335741 -0.239041503186 0.242480806465 -0.557755585185 0.242480806465 -0.557755585185 -0.458823842858 -0.134140601635
327.770833333 -0.138232922137 -0.22628100026 0.00785288423182 -0.573410245957 0.00785288423182 -0.573410245957 -0.530824221907 -0.129338475028
327.975 -0.253422284967 -0.0053985208726 0.27058654916 0.481308857485 0.27058654916 0.481308857485 -0.559226776153 -0.180928133576
328.179166667 -0.13497618024 0.133278267874 0.463135526232 0.357687157956 0.463135526232 0.357687157956 -0.545185892132 -0.245556330206
328.383333333 0.0386749363478 0.087198899791 0.595018113225 0.0978442840646 0.595018113225 0.0978442840646 -0.545180445936 -0.251941898706
328.5875 0.0729790396834 -0.0586341022826 0.595070547361 -0.187835498779 0.595070547361 -0.187835498779 -0.534261698382 -0.246554011746
328.791666667 -0.0469908681532 -0.161323392325 0.466787277011 -0.471294684234 0.466787277011 -0.471294684234 -0.472148824084 -0.262637172333
328.995833333 -0.199936519975 -0.112282137503 0.186070018309 -0.662877902519 0.186070018309 -0.662877902519 -0.441683820142 -0.256189000495
329.2 -0.246843182696 0.0288301306263 0.151302642479 0.679018934372 0.151302642479 0.679018934372 -0.420864830607 -0.212449338195
329.404166667 -0.176935499246 0.144741513368 0.49332268034 0.547360383106 0.49332268034 0.547360383106 -0.289933309291 -0.183204151755
329.608333333 -0.0846477203538 0.163164437117 0.754908771977 0.244046081692 0.754908771977 0.244046081692 -0.140827460536 -0.190077168799
329.8125 -0.0395791844799 0.143856286795 0.819107748105 -0.173785008983 0.819107748105 -0.173785008983 -0.0757977753881 -0.175657186658
330.016666667 -0.0218079878917 0.144242927179 0.667484331211 -0.563966938594 0.667484331211 -0.563966938594 -0.0201860570915 -0.129136211924
330.220833333 0.00727387292976 0.119698630012 0.332549890067 -0.787589369057 0.332549890067 -0.787589369057 0.00584976239626 -0.114973299258
330.425 -0.00948932486108 0.0692971218808 0.0456736931578 0.806791354151 0.0456736931578 0.806791354151 -0.0860611475203 -0.106762598313
330.629166667 -0.0774425420889 0.102476872812 0.361558948673 0.651698020484 0.361558948673 0.651698020484 -0.219218110402 -0.074263199504
330.833333333 -0.0596442663187 0.233428643973 0.556239242404 0.420340663309 0.556239242404 0.420340663309 -0.312659137233 -0.0837228024781
331.0375 0.11113894793 0.322573191485 0.639945150187 0.162714946131 0.639945150187 0.162714946131 -0.410227792373 -0.132659083936
331.241666667 0.304293207282 0.20418346422 0.623558467976 -0.0891771873185 0.623558467976 -0.0891771873185 -0.503081552287 -0.153759178976
331.445833333 0.324330377744 -0.02163013905 0.517806077578 -0.303916284048 0.517806077578 -0.303916284048 -0.549965533273 -0.169716044357
331.65 0.167247487541 -0.176242802265 0.363010513067 -0.473979048916 0.363010513067 -0.473979048916 -0.553627310618 -0.219861370538
331.854166667 -0.0422953428144 -0.126119836729 0.122889424211 -0.62064319037 0.122889424211 -0.62064319037 -0.511654654535 -0.264628036615
332.058333333 -0.0871410214414 0.0473654797455 0.184526786049 0.619551041354 0.184526786049 0.619551041354 -0.504807090495 -0.262368708988
332.2625 0.0142150904259 0.152813288643 0.441216739918 0.469374011563 0.441216739918 0.469374011563 -0.504004287217 -0.241373720231
332.466666667 0.149665940001 0.119611898375 0.622589809914 0.216237920907 0.622589809914 0.216237920907 -0.433664518632 -0.244273450756
332.670833333 0.18388453065 -0.00662577074378 0.649673476291 -0.126594120743 0.649673476291 -0.126594120743 -0.36818481835 -0.242697742205
332.875 0.115502949985 -0.0774492337135 0.483811433433 -0.408682027985 0.483811433433 -0.408682027985 -0.325981902016 -0.200980761909
333.079166667 0.0459380556692 -0.0653627424384 0.19777297084 -0.561015946918 0.19777297084 -0.561015946918 -0.192344743762 -0.162557124061
333.283333333 0.0258020484893 -0.0467797096848 0.140730210444 0.564349027027 0.140730210444 0.564349027027 -0.0477042745935 -0.155407220281
333.4875 0.0202502177988 -0.0577180909637 0.462740532967 0.411896887282 0.462740532967 0.411896887282 0.00141438471924 -0.158380495615
333.691666667 0.00504482913341 -0.0782162637485 0.691173153217 0.126265167871 0.691173153217 0.126265167871 -0.00756320233323 -0.128099708544
333.895833333 0.0175571469683 -0.0928361919225 0.744172500808 -0.231011980894 0.744172500808 -0.231011980894 -0.0425447532987 -0.0995250946773
334.1 0.048019904728 -0.172401743638 0.565614916561 -0.539175437418 0.565614916561 -0.539175437418 -0.154077580425 -0.10212863829
334.304166667 -0.0711905953951 -0.285517023411 0.246826646873 -0.679653335239 0.246826646873 -0.679653335239 -0.315597487975 -0.0878513020486
334.508333333 -0.29317380577 -0.210477753173 0.0813457131721 0.660080150445 0.0813457131721 0.660080150445 -0.407352258592 -0.0780094694905
334.7125 -0.383369036406 0.0280631695844 0.329774600662 0.527624041964 0.329774600662 0.527624041964 -0.453016009845 -0.117953876733
334.916666667 -0.220596099003 0.273784304543 0.517371036906 0.319847241107 0.517371036906 0.319847241107 -0.499211717966 -0.184169891017
335.120833333 0.0232225417714 0.248278898537 0.61276684046 0.0767041187667 0.61276684046 0.0767041187667 -0.531188391594 -0.21993124915
335.325 0.106266873809 0.0623752353378 0.609928550565 -0.178629435441 0.609928550565 -0.178629435441 -0.523408272582 -0.242783234036
335.529166667 -0.00772979847723 -0.0813162252071 0.467195725984 -0.464081109525 0.467195725984 -0.464081109525 -0.485388825457 -0.272661812233
335.733333333 -0.153542692196 -0.0568583728931 0.238495990127 -0.634738957822 0.238495990127 -0.634738957822 -0.48449583848 -0.266202094088
335.9375 -0.195891610156 0.114823029707 0.133214415114 0.668134287449 0.133214415114 0.668134287449 -0.496262377769 -0.228917098673
336.141666667 -0.135816928415 0.218523807774 0.397356851459 0.599229152088 0.397356851459 0.599229152088 -0.428520927773 -0.213163063048
336.345833333 0.00242703517292 0.216060299336 0.65625003134 0.360311545228 0.65625003134 0.360311545228 -0.302836731664 -0.217547789129
336.55 0.067572116119 0.13535793364 0.77386212096 0.00229252647073 0.77386212096 0.00229252647073 -0.21972781338 -0.207098351457
336.754166667 0.0635859676892 0.0663534945301 0.681486494955 -0.447081696514 0.681486494955 -0.447081696514 -0.122332218021 -0.16765353553
336.958333333 0.0280551094715 0.0750194628954 0.457455176186 -0.737081824414 0.457455176186 -0.737081824414 -0.00896578897433 -0.158970069214
337.1625 0.0248893475349 0.0813035504153 0.0977810478698 -0.869998842161 0.0977810478698 -0.869998842161 0.00957146399106 -0.175603202868
337.366666667 0.013647596897 0.0730302426897 0.321788674231 0.800676780655 0.321788674231 0.800676780655 -0.0640181759532 -0.125951827394
337.570833333 -0.0168159539622 0.125542152612 0.591107470375 0.558505005877 0.591107470375 0.558505005877 -0.141018754417 -0.046008012122
337.775 0.045760616509 0.210516928846 0.720047447037 0.244005890717 0.720047447037 0.244005890717 -0.177173712158 -0.0423634910935
337.979166667 0.205855730881 0.208518074126 0.697726694344 -0.0627482274071 0.697726694344 -0.0627482274071 -0.275250216485 -0.095652409437
338.183333333 0.318203611923 0.0325523418484 0.572166881662 -0.308079643594 0.572166881662 -0.308079643594 -0.396662091529 -0.121326844112
338.3875 0.243987265215 -0.163597362731 0.390111991254 -0.471110565539 0.390111991254 -0.471110565539 -0.462351425161 -0.144513965306
338.591666667 0.0430543297087 -0.223905986004 0.180417473902 -0.565257424629 0.180417473902 -0.565257424629 -0.495948563261 -0.19949147253
338.795833333 -0.100809069113 -0.0854781158948 0.0587313707331 0.61113880837 0.0587313707331 0.61113880837 -0.501357329268 -0.244652575238
339.0 -0.0536104309493 0.084958057043 0.330745540884 0.52990345077 0.330745540884 0.52990345077 -0.517280230822 -0.242909614917
339.204166667 0.114250200169 0.120980867838 0.561988905091 0.320804137847 0.561988905091 0.320804137847 -0.519900403002 -0.236088583184
339.408333333 0.232186724959 -0.0302167732737 0.685953528325 0.0122496357496 0.685953528325 0.0122496357496 -0.474266564107 -0.246647650583
339.6125 0.154774785768 -0.213431520351 0.633586159075 -0.345445341293 0.633586159075 -0.345445341293 -0.427211083678 -0.245101151518
339.816666667 -0.0111983438866 -0.2481800996 0.412947711817 -0.617731790959 0.412947711817 -0.617731790959 -0.383887969627 -0.224191780941
340.020833333 -0.114217363007 -0.156101236917 0.0880644967633 -0.774311647357 0.0880644967633 -0.774311647357 -0.273900750347 -0.212725782854
340.225 -0.108137336697 -0.0486975753543 0.318847773092 0.755663271014 0.318847773092 0.755663271014 -0.165870570128 -0.213593494197
340.429166667 -0.0550391125713 -0.0210840999834 0.663878809944 0.538333784441 0.663878809944 0.538333784441 -0.1150957739 -0.192295737357
340.633333333 -0.0377130732967 -0.0372188847641 0.860613508218 0.171432410023 0.860613508218 0.171432410023 -0.0575418332314 -0.139115179894
340.8375 -0.0404326823222 -0.0351362061836 0.84634722217 -0.263508028848 0.84634722217 -0.263508028848 0.0103967993408 -0.10696861982
341.041666667 -0.0197820299377 -0.0393769895373 0.602985717895 -0.618484775295 0.602985717895 -0.618484775295 -0.00407868733067 -0.103785173872
341.245833333 -0.0357628368177 -0.0974889483883 0.242808276825 -0.772671663749 0.242808276825 -0.772671663749 -0.107932862674 -0.0741528623428
341.45 -0.131920389627 -0.0984015077981 0.0944163305738 0.721103862664 0.0944163305738 0.721103862664 -0.199735608247 -0.0463604891319
341.654166667 -0.198464351803 0.0266364591779 0.367629609109 0.549311660086 0.367629609109 0.549311660086 -0.246629269211 -0.0820845625007
341.858333333 -0.114146034907 0.186089148055 0.52550831359 0.314412857775 0.52550831359 0.314412857775 -0.346345200865 -0.149846477373
342.0625 0.0797427129824 0.172017504083 0.56755987738 0.0558029921297 0.56755987738 0.0558029921297 -0.460576355269 -0.174635116313
342.266666667 0.155580831334 0.01722389686 0.515294048873 -0.177988786224 0.515294048873 -0.177988786224 -0.514360644589 -0.170496745544
342.470833333 0.0759576909146 -0.133120760948 0.402542242659 -0.379280952477 0.402542242659 -0.379280952477 -0.514070636265 -0.208007304155
342.675 -0.103977414838 -0.137595890002 0.221067138768 -0.559330132289 0.221067138768 -0.559330132289 -0.492261390965 -0.251812352872
342.879166667 -0.206429172659 0.0396467238318 0.0982794409081 0.646239357691 0.0982794409081 0.646239357691 -0.498080397593 -0.246883837491
343.083333333 -0.131633054132 0.224026657022 0.407450108224 0.590554635842 0.407450108224 0.590554635842 -0.484477768974 -0.232665164024
343.2875 0.0368819908596 0.247762271055 0.646071407814 0.413751070074 0.646071407814 0.413751070074 -0.401384474083 -0.245757760048
343.491666667 0.158101634064 0.107274859116 0.787643913409 0.0456571280526 0.787643913409 0.0456571280526 -0.325046446365 -0.260108200592
343.695833333 0.127086648152 -0.0275998378068 0.733767583306 -0.362265316122 0.733767583306 -0.362265316122 -0.29482725014 -0.236548015043
343.9 0.0297826198845 -0.0541151915549 0.492003642517 -0.705705074554 0.492003642517 -0.705705074554 -0.216910233606 -0.194248837685
344.104166667 -0.0074262178024 -0.00031665500109 0.109880263011 -0.887375094643 0.109880263011 -0.887375094643 -0.109439117447 -0.173179400051
344.308333333 0.0173509364907 0.0310887065204 0.294802088498 0.863865083089 0.294802088498 0.863865083089 -0.0490161094403 -0.151196437993
344.5125 0.0352425822432 0.0280949544101 0.633107250834 0.667573236202 0.633107250834 0.667573236202 -0.0096489108154 -0.0984371317452
344.716666667 0.0365309921527 0.0369056253155 0.861827607707 0.300252836425 0.861827607707 0.300252836425 0.0206389894368 -0.0757892244084
344.920833333 0.0809445258677 0.0597998277775 0.874880603635 -0.107657104917 0.874880603635 -0.107657104917 -0.0196341412562 -0.0901907528117
345.125 0.165523737936 0.00686053184606 0.72997929078 -0.400273362866 0.72997929078 -0.400273362866 -0.150524223892 -0.0919602366656
345.329166667 0.157072971074 -0.14484955326 0.501050545044 -0.593802798103 0.501050545044 -0.593802798103 -0.272835444191 -0.0850730951744
345.533333333 0.00412103224858 -0.247396208087 0.241315073806 -0.690566524402 0.241315073806 -0.690566524402 -0.34439807102 -0.106094207621
345.7375 -0.226436455939 -0.163559379107 0.0467009284164 0.706041715745 0.0467009284164 0.706041715745 -0.411348687917 -0.154655939037
345.941666667 -0.29039959863 0.0935372769844 0.305478587569 0.643550363469 0.305478587569 0.643550363469 -0.473487380223 -0.185112503344
346.145833333 -0.100814843502 0.303470082265 0.537201892697 0.462418087338 0.537201892697 0.462418087338 -0.515844200865 -0.186244477482
346.35 0.178367153577 0.266947472761 0.676197608849 0.202051323002 0.676197608849 0.202051323002 -0.511515425382 -0.213582100174
346.554166667 0.279187308691 0.0104240591988 0.720419260142 -0.120410147824 0.720419260142 -0.120410147824 -0.45451860412 -0.262062411663
346.758333333 0.129981774911 -0.165471886791 0.588931641401 -0.451310087218 0.588931641401 -0.451310087218 -0.431002029482 -0.275065376523
346.9625 -0.0406771190346 -0.152234068026 0.321070659103 -0.663403338542 0.321070659103 -0.663403338542 -0.445067784123 -0.246289780865
347.166666667 -0.113593461976 -0.0249467481693 0.000378715833283 -0.763177660163 0.000378715833283 -0.763177660163 -0.39032470645 -0.229302401712
347.370833333 -0.0396541267848 0.0887604183134 0.343190215843 0.713230807513 0.343190215843 0.713230807513 -0.277206900924 -0.234773864265
347.575 0.0855567552303 0.0811450483934 0.68894316985 0.460807566776 0.68894316985 0.460807566776 -0.220746918292 -0.231915287571
347.779166667 0.12756499659 -0.0171912183587 0.859525604364 0.0607569105922 0.859525604364 0.0607569105922 -0.175937034323 -0.184673287383
347.983333333 0.0814567740936 -0.0861754681238 0.817559309897 -0.37189870748 0.817559309897 -0.37189870748 -0.0669234722555 -0.134112185319
348.1875 0.0331945319766 -0.096089822589 0.551443151955 -0.735167930374 0.551443151955 -0.735167930374 0.0160528907368 -0.124754187767
348.391666667 0.00981568393419 -0.104606786142 0.146471531462 -0.897282177466 0.146471531462 -0.897282177466 0.0139067588801 -0.114187775535
348.595833333 -0.0559258710402 -0.103974889131 0.301982346486 0.819376541584 0.301982346486 0.819376541584 -0.0268315149804 -0.0754676836006
348.8 -0.115050898077 -0.024033555639 0.621791523387 0.576427836281 0.621791523387 0.576427836281 -0.0691928864258 -0.063881695747
349.004166667 -0.0720930675999 0.0839929274009 0.741921563185 0.305583712394 0.741921563185 0.305583712394 -0.162459466279 -0.0901496410527
349.208333333 0.0843506328899 0.107469129539 0.750859218708 0.0144345799509 0.750859218708 0.0144345799509 -0.294120277946 -0.110976970755
349.4125 0.19199772553 -0.0893389912751 0.644022139261 -0.326418897234 0.644022139261 -0.326418897234 -0.38429480897 -0.121125236306
349.616666667 0.0594337294406 -0.296125852274 0.442978148109 -0.541089267511 0.442978148109 -0.541089267511 -0.427756229818 -0.153558295019
349.820833333 -0.1717892692 -0.304854124055 0.222257739491 -0.642127031548 0.222257739491 -0.642127031548 -0.467394839851 -0.197279874817
350.025 -0.322349750331 -0.124582945106 0.035869718297 0.676616017831 0.035869718297 0.676616017831 -0.502353417704 -0.209910622266
350.229166667 -0.301400238643 0.100835743174 0.294719385244 0.619022168841 0.294719385244 0.619022168841 -0.509565034165 -0.20991180909
350.433333333 -0.123518443062 0.218249440909 0.531809050768 0.481749938954 0.531809050768 0.481749938954 -0.463716291566 -0.240227728873
350.6375 0.0611566896476 0.128807965666 0.72903780046 0.216209162613 0.72903780046 0.216209162613 -0.385921900969 -0.276386605712
350.841666667 0.073604886097 -0.0359444935434 0.760620171691 -0.114321924684 0.760620171691 -0.114321924684 -0.361632544004 -0.27878022238
351.045833333 -0.0347024599479 -0.128490673308 0.643879043625 -0.458844443611 0.643879043625 -0.458844443611 -0.353508001166 -0.246983352899
351.25 -0.171216534952 -0.0960025220887 0.407702915273 -0.73530018531 0.407702915273 -0.73530018531 -0.277625123819 -0.225326870039
351.454166667 -0.22924915053 0.0739415191375 0.0456828209883 0.922058467781 0.0456828209883 0.922058467781 -0.188779291436 -0.217860619716
351.658333333 -0.174174887214 0.135907999115 0.401862996924 0.85111180318 0.401862996924 0.85111180318 -0.145190981582 -0.189995476477
351.8625 -0.102417714255 0.125107605112 0.68369305606 0.586606880763 0.68369305606 0.586606880763 -0.0814604881 -0.117993541374
352.066666667 -0.0577401026536 0.139255137445 0.910083023834 0.155134263179 0.910083023834 0.155134263179 0.0278743769067 -0.0743096582309
352.270833333 -0.020986488896 0.156013387743 0.880453262419 -0.280837003088 0.880453262419 -0.280837003088 0.0736618220853 -0.101962924852
352.475 0.0399552170973 0.131675525006 0.668222035104 -0.613516899514 0.668222035104 -0.613516899514 0.00471288041727 -0.113599264984
352.679166667 0.0471086935241 0.0388519879878 0.343220758247 -0.794247048373 0.343220758247 -0.794247048373 -0.109775883436 -0.0898793616737
352.883333333 -0.0605432324739 0.0142635374268 0.0570600631605 0.82264381921 0.0570600631605 0.82264381921 -0.197247463383 -0.0861433548095
353.0875 -0.125609556302 0.171644119626 0.390591674663 0.673124044549 0.390591674663 0.673124044549 -0.294330142472 -0.113347571723
353.291666667 0.0180844294654 0.339700239092 0.585090921433 0.438262047989 0.585090921433 0.438262047989 -0.399364476674 -0.129891883953
353.495833333 0.2131101956 0.36569185317 0.664555207188 0.229357112233 0.664555207188 0.229357112233 -0.458347130097 -0.134969471508
353.7 0.454615663457 0.128518453186 0.692293871577 -0.0831340535416 0.692293871577 -0.0831340535416 -0.471635750941 -0.162922127227
353.904166667 0.36431768293 -0.232378413729 0.579475808034 -0.392084916261 0.579475808034 -0.392084916261 -0.465514520985 -0.213224615124
354.108333333 0.111032437664 -0.304284158777 0.393094018541 -0.611978433354 0.393094018541 -0.611978433354 -0.44926902917 -0.251258500281
354.3125 -0.0696918681983 -0.166696701548 0.10182137331 -0.73352810529 0.10182137331 -0.73352810529 -0.430828119369 -0.261422459265
