!Created with skrf (http://scikit-rf.org).
# GHz S RI R 50.0 
!freq ReS11 ImS11 ReS21 ImS21 ReS12 ImS12 ReS22 ImS22
324.9125 0.146006067323 0.160857741405 0.516963844834 1.37611100229 0.516963844834 1.37611100229 -0.0559005898912 -0.0953731918866
325.116666667 0.108311706057 0.0695831539682 0.866086246843 0.835926589251 0.866086246843 0.835926589251 -0.0900202392476 -0.0540861347355
325.320833333 0.0765943126554 0.0158099943295 1.00070610902 0.316550284024 1.00070610902 0.316550284024 -0.0374826884922 -0.0204846379045
325.525 0.0422636642056 -0.0145053344419 0.960374758917 -0.17709596151 0.960374758917 -0.17709596151 0.00597739747321 -0.0799613772423
325.729166667 0.00319070041916 -0.0163836096126 0.723736591477 -0.585014696405 0.723736591477 -0.585014696405 -0.0460455516842 -0.119988501887
325.933333333 -0.0221238498161 0.0085320124624 0.339499311834 -0.854898622192 0.339499311834 -0.854898622192 -0.0838915262287 -0.0777947115369
326.1375 -0.0181887990843 0.0434825512684 0.13435175976 0.911782746226 0.13435175976 0.911782746226 -0.0522708566266 -0.0597621111561
326.341666667 0.0113164835374 0.0601450292003 0.557316001398 0.716664973718 0.557316001398 0.716664973718 -0.0554462087795 -0.084305946252
326.545833333 0.0409980008431 0.0528836736797 0.821639302368 0.362523215309 0.821639302368 0.362523215309 -0.0858730879799 -0.0526253009513
326.75 0.0574470266223 0.0318544694498 0.888812410171 -0.0662117704442 0.888812410171 -0.0662117704442 -0.0374837820543 -0.0162464708671
326.954166667 0.0596104995234 0.0133381882023 0.765526206312 -0.471662740412 0.765526206312 -0.471662740412 0.0152438257932 -0.073021248034
327.158333333 0.0543994108427 0.000823023921735 0.44628498725 -0.785967860115 0.44628498725 -0.785967860115 -0.0400901553723 -0.126371427438
327.3625 0.0525063179312 -0.00525877302888 0.0062559452062 -0.917675190689 0.0062559452062 -0.917675190689 -0.0879230357531 -0.0774284355273
327.566666667 0.0557265971376 -0.0105436710767 0.425740127067 0.824529959725 0.425740127067 0.824529959725 -0.0414578270143 -0.0441873713909
327.770833333 0.0547599209975 -0.0274786618947 0.777756548649 0.502830315075 0.777756548649 0.502830315075 -0.0227964688538 -0.0930820534307
327.975 0.0540854873927 -0.0373205698893 0.920199092139 0.16554446769 0.920199092139 0.16554446769 -0.0798487242021 -0.0976748889648
328.179166667 0.0395388279921 -0.0483241497322 0.902116068156 -0.248823475855 0.902116068156 -0.248823475855 -0.0811829249521 -0.0387660015412
328.383333333 0.0181826428753 -0.046806445009 0.698131938885 -0.634585434384 0.698131938885 -0.634585434384 -0.0217726986679 -0.0415437368757
328.5875 0.00480212591141 -0.0260684871942 0.342523344347 -0.878154090079 0.342523344347 -0.878154090079 -0.0295787841786 -0.0829150060944
328.791666667 0.0116987214218 -4.22505428478e-05 0.0953402822945 0.92858818273 0.0953402822945 0.92858818273 -0.0610427316308 -0.0662104229922
328.995833333 0.0359423853442 0.013945440423 0.463399652469 0.801849499976 0.463399652469 0.801849499976 -0.0235513032008 -0.047975533974
329.2 0.0643255724172 0.00416983652568 0.753813750826 0.514915693762 0.753813750826 0.514915693762 8.22143430109e-05 -0.10006016004
329.404166667 0.0780375869248 -0.0318155871304 0.891933971628 0.0970585479438 0.891933971628 0.0970585479438 -0.0674677104774 -0.12792233345
329.608333333 0.0620257385021 -0.0733649809213 0.810027920903 -0.354984090023 0.810027920903 -0.354984090023 -0.110093116309 -0.0688385414121
329.8125 0.00872243875471 -0.0998772495885 0.450441098932 -0.762838248431 0.450441098932 -0.762838248431 -0.0627450789296 -0.0221547777178
330.016666667 -0.0113925146871 -0.10259160819 0.0700898845317 -0.907947859516 0.0700898845317 -0.907947859516 -0.029396318797 -0.0410310956138
330.220833333 -0.0203339585822 -0.100170963151 0.319083483561 0.849948222558 0.319083483561 0.849948222558 -0.0346928080267 -0.0444835662187
330.425 -0.0357101443762 -0.102369092403 0.65686464851 0.608111500114 0.65686464851 0.608111500114 0.000461693167762 -0.0470974996632
330.629166667 -0.0781001446184 -0.0928061863909 0.863965104419 0.174094171178 0.863965104419 0.174094171178 0.0249900988757 -0.104130487799
330.833333333 -0.116766876096 -0.0669284296858 0.824712328523 -0.26298226017 0.824712328523 -0.26298226017 -0.0381133144574 -0.149490395598
331.0375 -0.140617434422 -0.0178034198055 0.584333024028 -0.621220436538 0.584333024028 -0.621220436538 -0.10737663533 -0.102545758497
331.241666667 -0.135080500904 0.0386279565863 0.207003070217 -0.818209635788 0.207003070217 -0.818209635788 -0.0794735055039 -0.0370866135693
331.445833333 -0.10245253426 0.0833809903507 0.215399736848 0.805885594114 0.215399736848 0.805885594114 -0.0359087724128 -0.0502007469374
331.65 -0.0584429156632 0.104170552156 0.570519579599 0.596546071398 0.570519579599 0.596546071398 -0.0521907718781 -0.0651421845805
331.854166667 -0.0219677814739 0.104016298863 0.784043739124 0.261236362697 0.784043739124 0.261236362697 -0.0435973675633 -0.0313551927814
332.058333333 -9.7393714478e-05 0.0958643079886 0.835486373282 -0.134243651475 0.835486373282 -0.134243651475 0.0209823796272 -0.0507995328583
332.2625 0.00726041233178 0.093888827386 0.727152465331 -0.516948220941 0.727152465331 -0.516948220941 0.0131281941897 -0.131218816139
332.466666667 0.00991905266646 0.102889552197 0.457592818543 -0.829616816949 0.457592818543 -0.829616816949 -0.0717791464816 -0.140372547967
332.670833333 0.0268614110329 0.114819987374 0.0344419058478 -0.985776638874 0.0344419058478 -0.985776638874 -0.0955883935977 -0.0701435495072
332.875 0.0462488667504 0.118781997346 0.391710093588 0.927079445793 0.391710093588 0.927079445793 -0.0458458546595 -0.0489789582847
333.079166667 0.0689802895063 0.105525789054 0.754356418586 0.668993767497 0.754356418586 0.668993767497 -0.0437066367917 -0.0790001416056
333.283333333 0.0774634002478 0.0777774352662 0.960002745996 0.270849426327 0.960002745996 0.270849426327 -0.0687714053886 -0.0546333376104
333.4875 0.0677527895119 0.0578936735681 0.978967954831 -0.172735528921 0.978967954831 -0.172735528921 -0.0294900064269 -0.0263700249617
333.691666667 0.0481709984718 0.0585024678591 0.816852905633 -0.560195996154 0.816852905633 -0.560195996154 0.0166044102976 -0.0689410224134
333.895833333 0.0327080524887 0.080954207517 0.552007302866 -0.823432975411 0.552007302866 -0.823432975411 -0.0145538162243 -0.112853502019
334.1 0.0389223228031 0.106876544422 0.176795940513 -0.96940218579 0.176795940513 -0.96940218579 -0.0547918397434 -0.0954967240998
334.304166667 0.0824176793479 0.114319194109 0.303219747539 0.934074956055 0.303219747539 0.934074956055 -0.0390351485088 -0.0767886482939
334.508333333 0.126576934099 0.100877954208 0.687810009732 0.706163840836 0.687810009732 0.706163840836 -0.0349907479921 -0.101510431511
334.7125 0.15307449935 0.0644757883871 0.91364329663 0.332377240258 0.91364329663 0.332377240258 -0.0785528214871 -0.0944731618406
334.916666667 0.163013742197 0.00638723505077 0.954771502361 -0.150689869313 0.954771502361 -0.150689869313 -0.0804072147694 -0.0374366559005
335.120833333 0.150914841469 -0.0402591381948 0.765439930289 -0.587065217575 0.765439930289 -0.587065217575 -0.0184752099955 -0.0334522159317
335.325 0.132782155186 -0.0725226187672 0.403081426769 -0.875854344846 0.403081426769 -0.875854344846 -0.00378557319265 -0.080729470924
335.529166667 0.114530084783 -0.0993544614971 0.0598440542419 0.959331375765 0.0598440542419 0.959331375765 -0.0386329986834 -0.0803458082873
335.733333333 0.0821722360541 -0.133059038763 0.539421495178 0.788497055622 0.539421495178 0.788497055622 -0.0188515754703 -0.0557172589031
335.9375 0.0710132253946 -0.161050137085 0.839644147694 0.501790488957 0.839644147694 0.501790488957 0.0181448067328 -0.104874984036
336.141666667 0.0264485924069 -0.183574808342 0.976943451925 0.0689127003307 0.976943451925 0.0689127003307 -0.0387200942741 -0.15669865667
336.345833333 0.000855963060799 -0.212662665526 0.991164818106 -0.316470219643 0.991164818106 -0.316470219643 -0.115287375737 -0.104482908462
336.55 -0.0858230388175 -0.163941992108 0.638182166255 -0.748915359072 0.638182166255 -0.748915359072 -0.0926456548601 -0.0250984024733
336.754166667 -0.193718421056 -0.16034628798 0.22200572201 -1.1770598614 0.22200572201 -1.1770598614 -0.0223317495357 -0.0320642673398
336.958333333 -0.150697734622 -0.152570358362 0.1264471095 1.18649033504 0.1264471095 1.18649033504 -0.0231181747606 -0.0668842683908
337.1625 -0.150477665543 -0.0647366218298 0.730850282026 0.883847134916 0.730850282026 0.883847134916 -0.0329234871722 -0.0512974735809
337.366666667 -0.154100444759 -0.0694959294582 1.12537331961 0.526169253961 1.12537331961 0.526169253961 0.0143039499054 -0.0576366936429
337.570833333 -0.124324711728 -0.0855956686775 1.14974657498 0.0840346125395 1.14974657498 0.0840346125395 0.021334147801 -0.126989591331
337.775 -0.128294128175 -0.0770706223825 1.0092445658 -0.371201783365 1.0092445658 -0.371201783365 -0.0583660762039 -0.153981023194
337.979166667 -0.136552308717 -0.0573361443226 0.728391632567 -0.71224496513 0.728391632567 -0.71224496513 -0.111251388147 -0.0841988980945
338.183333333 -0.135599208686 -0.0275962270106 0.341568766003 -0.913810764186 0.341568766003 -0.913810764186 -0.0647267704115 -0.0327803038058
338.3875 -0.120093410281 0.00922485015947 0.120145180695 0.932285831612 0.120145180695 0.932285831612 -0.0247205290835 -0.0481418608871
338.591666667 -0.0952755087138 0.0419138791699 0.570151826659 0.725564403501 0.570151826659 0.725564403501 -0.0346465613867 -0.0602376744963
338.795833333 -0.0824411261645 0.048324455551 0.828569238768 0.390152393914 0.828569238768 0.390152393914 -0.018710407836 -0.0493219969255
339.0 -0.0768578271089 0.0541835740879 0.894285674285 -0.0275027865108 0.894285674285 -0.0275027865108 0.0160724534371 -0.0783277355185
339.204166667 -0.0702418522108 0.0775558929758 0.760799328257 -0.46372709114 0.760799328257 -0.46372709114 -0.0056046741043 -0.123489913643
339.408333333 -0.057230555783 0.1063986258 0.453299447836 -0.767947158959 0.453299447836 -0.767947158959 -0.0607700292215 -0.114034152598
339.6125 -0.0248202717268 0.132529955074 0.0416060747982 -0.896312160688 0.0416060747982 -0.896312160688 -0.0634185568029 -0.0725595238342
339.816666667 0.0226145479846 0.143313703014 0.386646117968 0.822594779403 0.386646117968 0.822594779403 -0.0307918086512 -0.0733557384069
340.020833333 0.0706327240325 0.130779158408 0.725965423479 0.56536970295 0.725965423479 0.56536970295 -0.0478070297581 -0.0934988480824
340.225 0.103934279098 0.0979049230026 0.903820890047 0.186589805931 0.903820890047 0.186589805931 -0.0765396207813 -0.0619298804104
340.429166667 0.116523652998 0.0618948042001 0.896871494113 -0.224541295325 0.896871494113 -0.224541295325 -0.0382766144141 -0.0209504980497
340.633333333 0.110742527843 0.0363404954027 0.722466881815 -0.589263113994 0.722466881815 -0.589263113994 0.0225351346591 -0.0523164835682
340.8375 0.104060096546 0.0128481821462 0.369272729729 -0.870041419556 0.369272729729 -0.870041419556 0.0109649784571 -0.112510812438
341.041666667 0.109786711024 -0.00324406565459 0.0703290785811 0.984935504317 0.0703290785811 0.984935504317 -0.0397071392732 -0.109812187637
341.245833333 0.122871131514 -0.00554045870774 0.445450287674 0.919150579569 0.445450287674 0.919150579569 -0.0334612366015 -0.0850502680713
341.45 0.122589852981 -0.0320624383794 0.787748222394 0.645962321777 0.787748222394 0.645962321777 -0.0243027710679 -0.108595547429
341.654166667 0.105882949975 -0.059550302896 0.97473972498 0.271810486535 0.97473972498 0.271810486535 -0.0755395204293 -0.114515495605
341.858333333 0.0710416766777 -0.0697905573782 0.975321489887 -0.122779490171 0.975321489887 -0.122779490171 -0.101880038909 -0.043651061119
342.0625 0.0285004801261 -0.0611703070445 0.787508977542 -0.501953143969 0.787508977542 -0.501953143969 -0.0308280732868 0.00475481675186
342.266666667 -0.00704849819959 -0.0431449178482 0.402114168581 -0.888460342519 0.402114168581 -0.888460342519 0.0390481186465 -0.0518509007713
342.470833333 0.000720518782635 -0.017056683031 0.0907722317535 -1.06367826591 0.0907722317535 -1.06367826591 0.0122975758491 -0.110709273964
342.675 0.0142721227058 0.0121182471288 0.0931731648237 0.982239076534 0.0931731648237 0.982239076534 -0.0313973084563 -0.104820232271
342.879166667 0.0332620309543 0.0115010793055 0.569964669213 0.704084609335 0.569964669213 0.704084609335 -0.0218578793973 -0.0927458764422
343.083333333 0.0507845672742 -0.00524941909743 0.877822813723 0.315925227705 0.877822813723 0.315925227705 -0.0293627786078 -0.118677090326
343.2875 0.0589790175315 0.00214415079076 0.956297407384 0.0845647627513 0.956297407384 0.0845647627513 -0.0784692474827 -0.103807669388
343.491666667 0.05583932082 0.00284300243941 0.893465302748 -0.231631902576 0.893465302748 -0.231631902576 -0.085637114071 -0.041134865374
343.695833333 0.0541968430922 -0.0130613464411 0.653986628958 -0.625439230442 0.653986628958 -0.625439230442 -0.0148292388185 -0.0183133855163
343.9 0.052661106101 -0.0267899767638 0.258547595112 -0.858616812382 0.258547595112 -0.858616812382 0.0265346013976 -0.0727671171311
344.104166667 0.0523911309096 -0.0415738668048 0.186387648196 0.874638014459 0.186387648196 0.874638014459 -0.00823951671809 -0.111378914464
344.308333333 0.0478075358256 -0.0610901929767 0.581607244893 0.676955094674 0.581607244893 0.676955094674 -0.0335485033202 -0.0935399293855
344.5125 0.0284340315436 -0.0862577654937 0.839173981104 0.309580827561 0.839173981104 0.309580827561 -0.0153770891435 -0.091100948872
344.716666667 -0.000880476338749 -0.100725672081 0.883487039093 -0.0949801913548 0.883487039093 -0.0949801913548 -0.0281331672359 -0.121386070006
344.920833333 -0.040223253245 -0.0964118606806 0.740536132254 -0.478599146496 0.740536132254 -0.478599146496 -0.0809355310046 -0.100997616286
345.125 -0.0781916400917 -0.0753590248288 0.455888216109 -0.782705818662 0.455888216109 -0.782705818662 -0.0760014124287 -0.0355617248006
345.329166667 -0.103021600723 -0.0426752269299 0.0583434229268 -0.957252404512 0.0583434229268 -0.957252404512 -0.00396662747505 -0.0325333966981
345.533333333 -0.105846022709 -0.0036893084889 0.430721207626 0.934209661521 0.430721207626 0.934209661521 0.0110838541363 -0.0939901988607
345.7375 -0.102573923896 2.53851481749e-05 0.869416920369 0.781432969249 0.869416920369 0.781432969249 -0.0370557876701 -0.102773798691
345.941666667 -0.084412662269 -0.0161133953915 1.09394391058 0.408918690035 1.09394391058 0.408918690035 -0.0418075896686 -0.0581086213479
346.145833333 -0.0929620992506 -0.0139690542215 1.14757648385 -0.145248971671 1.14757648385 -0.145248971671 0.0074567757216 -0.0671577826266
346.35 -0.111969251487 -0.0111604536027 1.00215328218 -0.574809075127 1.00215328218 -0.574809075127 -0.000949803757461 -0.117360973061
346.554166667 -0.11471362694 0.00752759852297 0.678963910685 -0.886886812393 0.678963910685 -0.886886812393 -0.0570866196949 -0.109857816618
346.758333333 -0.0929172073816 0.0415569797096 0.18352256421 -1.06160928936 0.18352256421 -1.06160928936 -0.0556654210001 -0.0582780744389
346.9625 -0.072827948922 0.0473323146594 0.253944070011 1.05868755798 0.253944070011 1.05868755798 -0.00599856575082 -0.0618433626781
347.166666667 -0.0605407477335 0.0277169682905 0.600155151705 0.908794306259 0.600155151705 0.908794306259 -0.00917144005005 -0.101759959938
347.370833333 -0.0553072413271 -0.00668719873077 0.784861383585 0.680387749649 0.784861383585 0.680387749649 -0.0501292893992 -0.0917348200498
347.575 -0.0631434313719 -0.0154451005136 0.939448920162 0.27882481563 0.939448920162 0.27882481563 -0.0372012777038 -0.0538543314158
347.779166667 -0.0813411759928 -0.0120071368604 0.935636921691 -0.130722040907 0.935636921691 -0.130722040907 0.0124909438307 -0.0642888017927
347.983333333 -0.0996327532339 0.0117723055544 0.763181460759 -0.520684411365 0.763181460759 -0.520684411365 0.0125610340003 -0.112601938004
348.1875 -0.100755032178 0.0522528577779 0.435715085381 -0.801075926988 0.435715085381 -0.801075926988 -0.0359394039946 -0.123186105585
348.391666667 -0.0955739873954 0.0797507754083 0.0963022296888 -0.91212811923 0.0963022296888 -0.91212811923 -0.0477620848309 -0.0899577200291
348.595833333 -0.0546527530812 0.108645304931 0.335129585939 0.821323079272 0.335129585939 0.821323079272 -0.0258477685272 -0.0888119354485
348.8 -0.00482248587316 0.123260556086 0.696406431498 0.554493466766 0.696406431498 0.554493466766 -0.0401698025358 -0.105868348181
349.004166667 0.0305604753667 0.121534439319 0.887665115283 0.193912921484 0.887665115283 0.193912921484 -0.0744169681464 -0.0737409956883
349.208333333 0.0588736805633 0.109805889885 0.905879778261 -0.226619876112 0.905879778261 -0.226619876112 -0.0386958043809 -0.0269480038637
349.4125 0.0930721604106 0.105940549745 0.760831586582 -0.663289015781 0.760831586582 -0.663289015781 0.0300415310796 -0.0526367830331
349.616666667 0.138955670302 0.106266686969 0.419836954143 -1.01481961163 0.419836954143 -1.01481961163 0.0253811492149 -0.11819039171
349.820833333 0.165374085819 0.0926055313922 0.0271163517333 1.08979978464 0.0271163517333 1.08979978464 -0.0304579306656 -0.130023842693
350.025 0.189832510324 0.0533228666774 0.472110675352 0.95020071439 0.472110675352 0.95020071439 -0.046946599811 -0.0940530281677
350.229166667 0.189967798249 -0.00600095204603 0.798586324334 0.624082911319 0.798586324334 0.624082911319 -0.0266690058806 -0.0918697072709
350.433333333 0.171561538883 -0.0654284316477 0.973215260458 0.218109584225 0.973215260458 0.218109584225 -0.0452304167793 -0.105714509923
350.6375 0.150690803008 -0.132087103238 1.05040004665 -0.241479758931 1.05040004665 -0.241479758931 -0.0763956669907 -0.0701400084312
350.841666667 0.0977269392476 -0.142981237374 0.852523907549 -0.641271335016 0.852523907549 -0.641271335016 -0.0391874662404 -0.0211089471134
351.045833333 0.050581326181 -0.14626901233 0.48321670766 -0.980403615394 0.48321670766 -0.980403615394 0.032799016588 -0.0488631174403
351.25 0.0433397276974 -0.120186149068 0.0806128358068 -1.07338744905 0.0806128358068 -1.07338744905 0.0275988016836 -0.120392173579
351.454166667 0.0194522630025 -0.09243746348 0.397583656234 0.880385669728 0.397583656234 0.880385669728 -0.0348749647135 -0.126728150568
351.658333333 0.000278955974789 -0.110815762969 0.828181897604 0.615083171225 0.828181897604 0.615083171225 -0.0427390612469 -0.0822398253196
351.8625 0.0377630982744 -0.132735768211 1.02378274339 0.448204499026 1.02378274339 0.448204499026 -0.00967537828114 -0.0838291289967
352.066666667 0.0302072400739 -0.127127951772 1.06464968252 0.0607262329443 1.06464968252 0.0607262329443 -0.0210375632917 -0.108726424133
352.270833333 0.0109269544691 -0.118264957678 0.954833419372 -0.338266239452 0.954833419372 -0.338266239452 -0.0540280496236 -0.0943036204167
352.475 0.000793429887469 -0.107413123296 0.731535515008 -0.655401715059 0.731535515008 -0.655401715059 -0.0420130058921 -0.0631338116686
352.679166667 -0.00937020268585 -0.0944548329949 0.385585131735 -0.876827968217 0.385585131735 -0.876827968217 -0.00665831181322 -0.0675300309257
352.883333333 -0.0261465391533 -0.0794608374246 0.0908032359106 0.947301841478 0.0908032359106 0.947301841478 -0.00640825662744 -0.0938207031435
353.0875 -0.0360784396907 -0.0697329624754 0.53259506932 0.763987581502 0.53259506932 0.763987581502 -0.0331725372471 -0.0914524724352
353.291666667 -0.0508319985521 -0.0687985892879 0.816594420423 0.409354197864 0.816594420423 0.409354197864 -0.0250281028046 -0.0722383248807
353.495833333 -0.0764872932876 -0.066322865137 0.913969133415 -0.0215343787459 0.913969133415 -0.0215343787459 0.00741299417926 -0.0810949756502
353.7 -0.108958770543 -0.0523129181419 0.810643050301 -0.427782309937 0.810643050301 -0.427782309937 -0.00031874262598 -0.113199482664
353.904166667 -0.13285716751 -0.0290004371172 0.570855300239 -0.722187711637 0.570855300239 -0.722187711637 -0.0394318324312 -0.115379851011
