!Created with skrf (http://scikit-rf.org).
# GHz S RI R 50.0 
!freq ReS11 ImS11 ReS21 ImS21 ReS12 ImS12 ReS22 ImS22
290.0 -0.840522527917 0.537993032996 0.0 0.0 0.0 0.0 -0.421230534999 0.902465392854
290.204166667 -0.839042822482 0.540314509204 0.0 0.0 0.0 0.0 -0.416272902533 0.90478258981
290.408333333 -0.837562735556 0.542622373926 0.0 0.0 0.0 0.0 -0.411322852778 0.907063056286
290.6125 -0.836082271545 0.544916795538 0.0 0.0 0.0 0.0 -0.406380401422 0.909307191745
290.816666667 -0.834601434783 0.547197938581 0.0 0.0 0.0 0.0 -0.401445563994 0.91151538736
291.020833333 -0.833120229514 0.549465963918 0.0 0.0 0.0 0.0 -0.396518355802 0.913688026305
291.225 -0.831638659875 0.551721028878 0.0 0.0 0.0 0.0 -0.391598791864 0.915825484024
291.429166667 -0.830156729942 0.553963287299 0.0 0.0 0.0 0.0 -0.386686887063 0.917928128408
291.633333333 -0.828674443711 0.556192889669 0.0 0.0 0.0 0.0 -0.381782656081 0.919996320047
291.8375 -0.827191805079 0.55840998326 0.0 0.0 0.0 0.0 -0.376886113332 0.922030412475
292.041666667 -0.825708817893 0.560614712155 0.0 0.0 0.0 0.0 -0.371997273113 0.924030752323
292.245833333 -0.824225485928 0.562807217385 0.0 0.0 0.0 0.0 -0.367116149536 0.925997679542
292.45 -0.82274181287 0.56498763704 0.0 0.0 0.0 0.0 -0.362242756467 0.927931527629
292.654166667 -0.821257802361 0.567156106298 0.0 0.0 0.0 0.0 -0.357377107669 0.929832623755
292.858333333 -0.819773457979 0.56931275754 0.0 0.0 0.0 0.0 -0.352519216739 0.931701288967
293.0625 -0.818288783221 0.57145772046 0.0 0.0 0.0 0.0 -0.347669097038 0.933537838395
293.266666667 -0.816803781547 0.573591122081 0.0 0.0 0.0 0.0 -0.342826761843 0.935342581355
293.470833333 -0.81531845636 0.575713086861 0.0 0.0 0.0 0.0 -0.337992224277 0.937115821542
293.675 -0.813832810988 0.577823736797 0.0 0.0 0.0 0.0 -0.333165497242 0.938857857208
293.879166667 -0.812346848725 0.579923191429 0.0 0.0 0.0 0.0 -0.328346593567 0.940568981259
294.083333333 -0.81086057282 0.582011567942 0.0 0.0 0.0 0.0 -0.323535525939 0.942249481422
294.2875 -0.809373986446 0.584088981258 0.0 0.0 0.0 0.0 -0.318732306839 0.943899640412
294.491666667 -0.807887092755 0.58615554404 0.0 0.0 0.0 0.0 -0.313936948681 0.945519736015
294.695833333 -0.80639989485 0.588211366781 0.0 0.0 0.0 0.0 -0.309149463752 0.947110041241
294.9 -0.804912395771 0.590256557892 0.0 0.0 0.0 0.0 -0.30436986414 0.948670824471
295.104166667 -0.803424598536 0.592291223698 0.0 0.0 0.0 0.0 -0.29959816188 0.950202349534
295.308333333 -0.801936506122 0.594315468523 0.0 0.0 0.0 0.0 -0.294834368886 0.951704875844
295.5125 -0.800448121445 0.596329394774 0.0 0.0 0.0 0.0 -0.290078496881 0.953178658537
295.716666667 -0.798959447405 0.598333102926 0.0 0.0 0.0 0.0 -0.285330557548 0.954623948533
295.920833333 -0.797470486865 0.600326691608 0.0 0.0 0.0 0.0 -0.280590562452 0.956040992666
296.125 -0.795981242628 0.602310257675 0.0 0.0 0.0 0.0 -0.275858522982 0.957430033805
296.329166667 -0.794491717487 0.604283896196 0.0 0.0 0.0 0.0 -0.271134450487 0.958791310914
296.533333333 -0.793001914201 0.60624770053 0.0 0.0 0.0 0.0 -0.26641835621 0.960125059164
296.7375 -0.791511835473 0.608201762393 0.0 0.0 0.0 0.0 -0.261710251224 0.961431510049
296.941666667 -0.790021483999 0.610146171847 0.0 0.0 0.0 0.0 -0.257010146569 0.962710891431
297.145833333 -0.788530862443 0.612081017365 0.0 0.0 0.0 0.0 -0.252318053185 0.963963427655
297.35 -0.787039973417 0.614006385902 0.0 0.0 0.0 0.0 -0.247633981848 0.965189339644
297.554166667 -0.785548819529 0.615922362872 0.0 0.0 0.0 0.0 -0.242957943308 0.966388844946
297.758333333 -0.784057403355 0.617829032215 0.0 0.0 0.0 0.0 -0.238289948221 0.967562157833
297.9625 -0.782565727428 0.619726476462 0.0 0.0 0.0 0.0 -0.233630007084 0.968709489391
298.166666667 -0.781073794271 0.62161477671 0.0 0.0 0.0 0.0 -0.228978130372 0.969831047566
298.370833333 -0.779581606387 0.623494012683 0.0 0.0 0.0 0.0 -0.224334328473 0.970927037245
298.575 -0.778089166228 0.625364262799 0.0 0.0 0.0 0.0 -0.21969861162 0.971997660352
298.779166667 -0.776596476249 0.627225604134 0.0 0.0 0.0 0.0 -0.215070990031 0.973043115874
298.983333333 -0.775103538878 0.629078112493 0.0 0.0 0.0 0.0 -0.210451473839 0.974063599949
299.1875 -0.7736103565 0.630921862455 0.0 0.0 0.0 0.0 -0.205840073027 0.975059305943
299.391666667 -0.772116931501 0.632756927357 0.0 0.0 0.0 0.0 -0.201236797568 0.976030424482
299.595833333 -0.770623266246 0.634583379342 0.0 0.0 0.0 0.0 -0.196641657353 0.976977143528
299.8 -0.769129363057 0.636401289414 0.0 0.0 0.0 0.0 -0.192054662129 0.977899648452
300.004166667 -0.767635224257 0.638210727416 0.0 0.0 0.0 0.0 -0.187475821635 0.978798122059
300.208333333 -0.766140852153 0.640011762074 0.0 0.0 0.0 0.0 -0.182905145533 0.979672744664
300.4125 -0.764646249007 0.641804461054 0.0 0.0 0.0 0.0 -0.178342643345 0.980523694154
300.616666667 -0.763151417089 0.643588890932 0.0 0.0 0.0 0.0 -0.173788324585 0.981351146014
300.820833333 -0.761656358649 0.64536511724 0.0 0.0 0.0 0.0 -0.169242198697 0.982155273394
301.025 -0.760161075898 0.647133204522 0.0 0.0 0.0 0.0 -0.164704274987 0.982936247168
301.229166667 -0.758665571052 0.648893216295 0.0 0.0 0.0 0.0 -0.160174562756 0.983694235958
301.433333333 -0.757169846312 0.650645215106 0.0 0.0 0.0 0.0 -0.155653071238 0.984429406195
301.6375 -0.75567390384 0.652389262569 0.0 0.0 0.0 0.0 -0.151139809533 0.985141922173
301.841666667 -0.754177745805 0.654125419342 0.0 0.0 0.0 0.0 -0.146634786737 0.985831946073
302.045833333 -0.752681374361 0.655853745167 0.0 0.0 0.0 0.0 -0.142138011884 0.986499638015
302.25 -0.751184791627 0.657574298917 0.0 0.0 0.0 0.0 -0.137649493872 0.987145156113
302.454166667 -0.749687999726 0.659287138565 0.0 0.0 0.0 0.0 -0.133169241605 0.987768656493
302.658333333 -0.748191000772 0.660992321223 0.0 0.0 0.0 0.0 -0.128697263921 0.988370293344
302.8625 -0.746693796839 0.66268990319 0.0 0.0 0.0 0.0 -0.124233569527 0.988950218968
303.066666667 -0.745196390014 0.664379939916 0.0 0.0 0.0 0.0 -0.119778167138 0.989508583793
303.270833333 -0.743698782367 0.666062486045 0.0 0.0 0.0 0.0 -0.115331065404 0.990045536428
303.475 -0.742200975939 0.667737595455 0.0 0.0 0.0 0.0 -0.11089227285 0.990561223698
303.679166667 -0.740702972775 0.669405321225 0.0 0.0 0.0 0.0 -0.106461798007 0.991055790671
303.883333333 -0.739204774912 0.671065715678 0.0 0.0 0.0 0.0 -0.102039649344 0.991529380693
304.0875 -0.737706384354 0.672718830415 0.0 0.0 0.0 0.0 -0.0976258352077 0.991982135432
304.291666667 -0.736207803112 0.674364716284 0.0 0.0 0.0 0.0 -0.0932203639523 0.992414194896
304.495833333 -0.73470903319 0.676003423421 0.0 0.0 0.0 0.0 -0.0888232438729 0.992825697471
304.7 -0.733210076558 0.677635001283 0.0 0.0 0.0 0.0 -0.0844344831432 0.993216779958
304.904166667 -0.731710935197 0.679259498617 0.0 0.0 0.0 0.0 -0.0800540899453 0.993587577591
305.108333333 -0.730211611078 0.680876963498 0.0 0.0 0.0 0.0 -0.0756820724047 0.993938224071
305.3125 -0.728712106141 0.682487443362 0.0 0.0 0.0 0.0 -0.0713184385275 0.994268851604
305.516666667 -0.727212422338 0.684090984975 0.0 0.0 0.0 0.0 -0.0669631963292 0.994579590911
305.720833333 -0.725712561611 0.685687634467 0.0 0.0 0.0 0.0 -0.0626163537704 0.994870571269
305.925 -0.724212525871 0.687277437367 0.0 0.0 0.0 0.0 -0.0582779186941 0.995141920536
306.129166667 -0.722712317044 0.688860438571 0.0 0.0 0.0 0.0 -0.0539478989536 0.995393765169
306.333333333 -0.721211937044 0.690436682372 0.0 0.0 0.0 0.0 -0.0496263023488 0.995626230257
306.5375 -0.719711387757 0.692006212499 0.0 0.0 0.0 0.0 -0.0453131365638 0.995839439546
306.741666667 -0.718210671082 0.69356907208 0.0 0.0 0.0 0.0 -0.0410084092939 0.996033515457
306.945833333 -0.716709788909 0.695125303674 0.0 0.0 0.0 0.0 -0.0367121281823 0.996208579112
307.15 -0.715208743099 0.696674949308 0.0 0.0 0.0 0.0 -0.0324243007579 0.996364750362
307.354166667 -0.713707535528 0.698218050436 0.0 0.0 0.0 0.0 -0.0281449345617 0.996502147804
307.558333333 -0.712206168061 0.699754647978 0.0 0.0 0.0 0.0 -0.023874037084 0.996620888802
307.7625 -0.710704642539 0.701284782347 0.0 0.0 0.0 0.0 -0.0196116157018 0.996721089517
307.966666667 -0.709202960813 0.702808493419 0.0 0.0 0.0 0.0 -0.0153576778054 0.996802864917
308.170833333 -0.707701124729 0.704325820558 0.0 0.0 0.0 0.0 -0.0111122307352 0.996866328804
308.375 -0.706199136104 0.705836802653 0.0 0.0 0.0 0.0 -0.00687528172001 0.996911593833
308.579166667 -0.70469699677 0.707341478078 0.0 0.0 0.0 0.0 -0.0026468380022 0.996938771532
308.783333333 -0.703194708553 0.708839884728 0.0 0.0 0.0 0.0 0.00157309322458 0.99694797232
308.9875 -0.70169227325 0.710332060045 0.0 0.0 0.0 0.0 0.00578450487689 0.996939305525
309.191666667 -0.700189692673 0.711818040982 0.0 0.0 0.0 0.0 0.00998738985723 0.996912879407
309.395833333 -0.69868696863 0.713297864038 0.0 0.0 0.0 0.0 0.0141817411159 0.996868801169
309.6 -0.697184102898 0.714771565283 0.0 0.0 0.0 0.0 0.0183675517122 0.99680717698
309.804166667 -0.695681097272 0.716239180323 0.0 0.0 0.0 0.0 0.0225448146908 0.996728111991
310.008333333 -0.694177953542 0.717700744331 0.0 0.0 0.0 0.0 0.0267135231435 0.99663171035
310.2125 -0.692674673468 0.719156292075 0.0 0.0 0.0 0.0 0.0308736702697 0.99651807522
310.416666667 -0.691171258828 0.720605857881 0.0 0.0 0.0 0.0 0.0350252492539 0.996387308795
310.620833333 -0.689667711394 0.722049475664 0.0 0.0 0.0 0.0 0.0391682533269 0.996239512315
310.825 -0.688164032912 0.723487178954 0.0 0.0 0.0 0.0 0.043302675826 0.996074786082
311.029166667 -0.686660225144 0.724919000861 0.0 0.0 0.0 0.0 0.0474285100732 0.995893229475
311.233333333 -0.685156289845 0.726344974105 0.0 0.0 0.0 0.0 0.0515457494362 0.995694940967
311.4375 -0.683652228746 0.727765131038 0.0 0.0 0.0 0.0 0.055654387388 0.995480018134
311.641666667 -0.682148043594 0.729179503616 0.0 0.0 0.0 0.0 0.0597544173862 0.995248557673
311.845833333 -0.68064373613 0.730588123418 0.0 0.0 0.0 0.0 0.0638458329331 0.995000655419
312.05 -0.679139308071 0.73199102168 0.0 0.0 0.0 0.0 0.0679286276357 0.99473640635
312.254166667 -0.677634761149 0.733388229255 0.0 0.0 0.0 0.0 0.072002795085 0.994455904609
312.458333333 -0.676130097093 0.734779776641 0.0 0.0 0.0 0.0 0.0760683289164 0.994159243512
312.6625 -0.674625317604 0.736165694007 0.0 0.0 0.0 0.0 0.0801252228687 0.993846515561
312.866666667 -0.673120424402 0.737546011159 0.0 0.0 0.0 0.0 0.0841734706649 0.993517812459
313.070833333 -0.671615419203 0.738920757563 0.0 0.0 0.0 0.0 0.0882130660713 0.993173225123
313.275 -0.670110303697 0.740289962374 0.0 0.0 0.0 0.0 0.0922440029574 0.992812843689
313.479166667 -0.66860507959 0.741653654397 0.0 0.0 0.0 0.0 0.0962662751759 0.992436757532
313.683333333 -0.667099748586 0.743011862118 0.0 0.0 0.0 0.0 0.100279876623 0.992045055278
313.8875 -0.665594312362 0.744364613723 0.0 0.0 0.0 0.0 0.104284801297 0.991637824802
314.091666667 -0.664088772615 0.745711937065 0.0 0.0 0.0 0.0 0.108281043179 0.991215153257
314.295833333 -0.662583131035 0.747053859691 0.0 0.0 0.0 0.0 0.112268596293 0.990777127077
314.5 -0.66107738929 0.748390408864 0.0 0.0 0.0 0.0 0.116247454765 0.990323831979
314.704166667 -0.659571549063 0.749721611531 0.0 0.0 0.0 0.0 0.120217612704 0.989855352991
314.908333333 -0.658065612036 0.751047494343 0.0 0.0 0.0 0.0 0.12417906426 0.989371774451
315.1125 -0.656559579865 0.752368083683 0.0 0.0 0.0 0.0 0.128131803685 0.988873180014
315.316666667 -0.655053454224 0.753683405628 0.0 0.0 0.0 0.0 0.132075825213 0.988359652672
315.520833333 -0.653547236783 0.754993485976 0.0 0.0 0.0 0.0 0.136011123121 0.987831274762
315.725 -0.652040929189 0.756298350268 0.0 0.0 0.0 0.0 0.139937691784 0.987288127962
315.929166667 -0.650534533105 0.757598023753 0.0 0.0 0.0 0.0 0.143855525563 0.986730293319
316.133333333 -0.649028050194 0.758892531414 0.0 0.0 0.0 0.0 0.147764618857 0.98615785125
316.3375 -0.64752148209 0.760181897986 0.0 0.0 0.0 0.0 0.151664966166 0.985570881544
316.541666667 -0.64601483045 0.761466147928 0.0 0.0 0.0 0.0 0.155556561973 0.984969463384
316.745833333 -0.644508096926 0.76274530544 0.0 0.0 0.0 0.0 0.159439400802 0.984353675351
316.95 -0.643001283144 0.76401939449 0.0 0.0 0.0 0.0 0.163313477275 0.983723595419
317.154166667 -0.641494390751 0.765288438778 0.0 0.0 0.0 0.0 0.167178785997 0.983079300988
317.358333333 -0.639987421391 0.766552461759 0.0 0.0 0.0 0.0 0.171035321613 0.982420868877
317.5625 -0.638480376682 0.767811486665 0.0 0.0 0.0 0.0 0.174883078868 0.981748375324
317.766666667 -0.636973258262 0.769065536471 0.0 0.0 0.0 0.0 0.178722052488 0.981061896017
317.970833333 -0.635466067767 0.770314633919 0.0 0.0 0.0 0.0 0.182552237239 0.980361506087
318.175 -0.633958806807 0.771558801535 0.0 0.0 0.0 0.0 0.186373627987 0.979647280106
318.379166667 -0.632451477012 0.772798061601 0.0 0.0 0.0 0.0 0.190186219578 0.97891929212
318.583333333 -0.630944080011 0.774032436174 0.0 0.0 0.0 0.0 0.193990006899 0.978177615639
318.7875 -0.629436617405 0.775261947107 0.0 0.0 0.0 0.0 0.197784984934 0.977422323639
318.991666667 -0.627929090818 0.776486616017 0.0 0.0 0.0 0.0 0.20157114865 0.976653488588
319.195833333 -0.626421501871 0.777706464306 0.0 0.0 0.0 0.0 0.205348493053 0.975871182442
319.4 -0.624913852157 0.778921513179 0.0 0.0 0.0 0.0 0.209117013246 0.975075476641
319.604166667 -0.623406143294 0.780131783618 0.0 0.0 0.0 0.0 0.212876704314 0.974266442141
319.808333333 -0.621898376895 0.781337296395 0.0 0.0 0.0 0.0 0.216627561383 0.973444149405
320.0125 -0.620390554547 0.782538072098 0.0 0.0 0.0 0.0 0.220369579673 0.972608668398
320.216666667 -0.618882677861 0.783734131095 0.0 0.0 0.0 0.0 0.224102754387 0.971760068622
320.420833333 -0.617374748442 0.784925493558 0.0 0.0 0.0 0.0 0.22782708077 0.970898419103
320.625 -0.615866767873 0.786112179481 0.0 0.0 0.0 0.0 0.231542554158 0.970023788393
320.829166667 -0.614358737756 0.787294208644 0.0 0.0 0.0 0.0 0.235249169872 0.969136244592
321.033333333 -0.612850659692 0.788471600643 0.0 0.0 0.0 0.0 0.238946923273 0.968235855351
321.2375 -0.611342535256 0.7896443749 0.0 0.0 0.0 0.0 0.242635809814 0.967322687855
321.441666667 -0.609834366045 0.790812550634 0.0 0.0 0.0 0.0 0.246315824935 0.966396808863
321.645833333 -0.608326153653 0.791976146886 0.0 0.0 0.0 0.0 0.249986964111 0.965458284697
321.85 -0.60681789965 0.793135182529 0.0 0.0 0.0 0.0 0.253649222912 0.964507181233
322.054166667 -0.605309605626 0.794289676244 0.0 0.0 0.0 0.0 0.257302596893 0.963543563935
322.258333333 -0.60380127317 0.795439646538 0.0 0.0 0.0 0.0 0.260947081645 0.962567497847
322.4625 -0.602292903846 0.796585111759 0.0 0.0 0.0 0.0 0.264582672855 0.961579047586
322.666666667 -0.600784499239 0.797726090069 0.0 0.0 0.0 0.0 0.268209366192 0.960578277369
322.870833333 -0.599276060932 0.798862599462 0.0 0.0 0.0 0.0 0.271827157363 0.959565251012
323.075 -0.597767590484 0.799994657781 0.0 0.0 0.0 0.0 0.275436042168 0.958540031915
323.279166667 -0.596259089474 0.801122282691 0.0 0.0 0.0 0.0 0.279036016393 0.957502683097
323.483333333 -0.594750559481 0.802245491692 0.0 0.0 0.0 0.0 0.282627075859 0.956453267189
323.6875 -0.593242002057 0.803364302144 0.0 0.0 0.0 0.0 0.286209216481 0.955391846421
323.891666667 -0.591733418778 0.804478731229 0.0 0.0 0.0 0.0 0.289782434157 0.954318482657
324.095833333 -0.590224811215 0.805588795976 0.0 0.0 0.0 0.0 0.293346724824 0.953233237386
324.3 -0.588716180918 0.806694513276 0.0 0.0 0.0 0.0 0.296902084511 0.95213617171
324.504166667 -0.587207529456 0.807795899852 0.0 0.0 0.0 0.0 0.300448509229 0.951027346378
324.708333333 -0.585698858398 0.808892972278 0.0 0.0 0.0 0.0 0.30398599503 0.949906821781
324.9125 -0.584190169287 0.809985746994 0.0 0.0 0.0 0.0 0.307514538054 0.94877465793
325.116666667 -0.582681463688 0.81107424028 0.0 0.0 0.0 0.0 0.311034134427 0.947630914503
325.320833333 -0.581172743164 0.812158468271 0.0 0.0 0.0 0.0 0.314544780313 0.946475650826
325.525 -0.579664009255 0.813238446975 0.0 0.0 0.0 0.0 0.318046471966 0.945308925865
325.729166667 -0.578155263521 0.814314192245 0.0 0.0 0.0 0.0 0.321539205625 0.944130798258
325.933333333 -0.576646507521 0.815385719794 0.0 0.0 0.0 0.0 0.325022977566 0.942941326308
326.1375 -0.575137742791 0.816453045214 0.0 0.0 0.0 0.0 0.328497784156 0.941740567968
326.341666667 -0.573628970886 0.817516183946 0.0 0.0 0.0 0.0 0.331963621746 0.940528580875
326.545833333 -0.572120193362 0.818575151296 0.0 0.0 0.0 0.0 0.335420486724 0.939305422346
326.75 -0.570611411748 0.819629962456 0.0 0.0 0.0 0.0 0.33886837557 0.938071149352
326.954166667 -0.569102627597 0.82068063247 0.0 0.0 0.0 0.0 0.342307284746 0.936825818567
327.158333333 -0.56759384246 0.821727176254 0.0 0.0 0.0 0.0 0.345737210753 0.935569486351
327.3625 -0.566085057864 0.822769608611 0.0 0.0 0.0 0.0 0.349158150181 0.934302208733
327.566666667 -0.564576275356 0.823807944204 0.0 0.0 0.0 0.0 0.352570099605 0.933024041453
327.770833333 -0.563067496483 0.824842197571 0.0 0.0 0.0 0.0 0.355973055638 0.931735039946
327.975 -0.561558722769 0.825872383144 0.0 0.0 0.0 0.0 0.359367014979 0.930435259331
328.179166667 -0.560049955758 0.826898515216 0.0 0.0 0.0 0.0 0.362751974317 0.929124754444
328.383333333 -0.558541196992 0.827920607962 0.0 0.0 0.0 0.0 0.366127930374 0.927803579831
328.5875 -0.557032447991 0.828938675454 0.0 0.0 0.0 0.0 0.369494879962 0.926471789725
328.791666667 -0.555523710295 0.829952731631 0.0 0.0 0.0 0.0 0.372852819878 0.925129438094
328.995833333 -0.554014985444 0.830962790316 0.0 0.0 0.0 0.0 0.376201746957 0.923776578619
329.2 -0.552506274954 0.831968865234 0.0 0.0 0.0 0.0 0.379541658121 0.922413264681
329.404166667 -0.550997580362 0.832970969982 0.0 0.0 0.0 0.0 0.382872550278 0.921039549403
329.608333333 -0.549488903203 0.833969118044 0.0 0.0 0.0 0.0 0.386194420373 0.919655485634
329.8125 -0.54798024499 0.83496332281 0.0 0.0 0.0 0.0 0.389507265438 0.91826112593
330.016666667 -0.546471607256 0.835953597547 0.0 0.0 0.0 0.0 0.392811082491 0.916856522596
330.220833333 -0.544962991535 0.836939955411 0.0 0.0 0.0 0.0 0.396105868589 0.915441727674
330.425 -0.543454399334 0.837922409471 0.0 0.0 0.0 0.0 0.399391620871 0.914016792921
330.629166667 -0.541945832185 0.838900972672 0.0 0.0 0.0 0.0 0.402668336467 0.912581769853
330.833333333 -0.540437291616 0.839875657857 0.0 0.0 0.0 0.0 0.405936012543 0.911136709731
331.0375 -0.538928779134 0.840846477781 0.0 0.0 0.0 0.0 0.409194646349 0.909681663538
331.241666667 -0.537420296265 0.841813445082 0.0 0.0 0.0 0.0 0.412444235123 0.908216682025
331.445833333 -0.535911844536 0.842776572298 0.0 0.0 0.0 0.0 0.415684776142 0.906741815697
331.65 -0.534403425449 0.843735871881 0.0 0.0 0.0 0.0 0.418916266763 0.905257114786
331.854166667 -0.532895040529 0.844691356172 0.0 0.0 0.0 0.0 0.422138704335 0.903762629304
332.058333333 -0.531386691298 0.845643037415 0.0 0.0 0.0 0.0 0.425352086243 0.902258409022
332.2625 -0.529878379257 0.846590927771 0.0 0.0 0.0 0.0 0.428556409955 0.900744503447
332.466666667 -0.528370105926 0.847535039293 0.0 0.0 0.0 0.0 0.431751672929 0.899220961873
332.670833333 -0.526861872825 0.848475383939 0.0 0.0 0.0 0.0 0.434937872657 0.89768783336
332.875 -0.525353681452 0.849411973589 0.0 0.0 0.0 0.0 0.438115006717 0.896145166711
333.079166667 -0.523845533324 0.850344820019 0.0 0.0 0.0 0.0 0.441283072675 0.894593010525
333.283333333 -0.522337429959 0.85127393491 0.0 0.0 0.0 0.0 0.444442068133 0.893031413173
333.4875 -0.520829372852 0.852199329872 0.0 0.0 0.0 0.0 0.447591990776 0.891460422776
333.691666667 -0.519321363516 0.853121016409 0.0 0.0 0.0 0.0 0.450732838279 0.889880087258
333.895833333 -0.517813403467 0.854039005939 0.0 0.0 0.0 0.0 0.453864608354 0.888290454321
334.1 -0.516305494196 0.854953309805 0.0 0.0 0.0 0.0 0.456987298792 0.886691571426
334.304166667 -0.514797637216 0.855863939254 0.0 0.0 0.0 0.0 0.460100907378 0.885083485842
334.508333333 -0.513289834039 0.856770905445 0.0 0.0 0.0 0.0 0.463205431931 0.883466244623
334.7125 -0.511782086153 0.857674219468 0.0 0.0 0.0 0.0 0.46630087035 0.881839894588
334.916666667 -0.510274395069 0.858573892315 0.0 0.0 0.0 0.0 0.469387220529 0.88020448237
335.120833333 -0.508766762295 0.859469934899 0.0 0.0 0.0 0.0 0.472464480393 0.878560054394
