!Created with skrf (http://scikit-rf.org).
# GHz S RI R 50.0 
!freq ReS11 ImS11 ReS21 ImS21 ReS12 ImS12 ReS22 ImS22
290.0 -0.0762189490519 -0.150362128897 0.0 0.0 0.0 0.0 -0.0762189490519 -0.150362128897
290.204166667 -0.0747442471308 -0.150583950671 0.0 0.0 0.0 0.0 -0.0747442471308 -0.150583950671
290.408333333 -0.0732719697208 -0.150805567451 0.0 0.0 0.0 0.0 -0.0732719697208 -0.150805567451
290.6125 -0.0718211153362 -0.151025483546 0.0 0.0 0.0 0.0 -0.0718211153362 -0.151025483546
290.816666667 -0.07039665005 -0.151243304718 0.0 0.0 0.0 0.0 -0.07039665005 -0.151243304718
291.020833333 -0.0689721847708 -0.15146112589 0.0 0.0 0.0 0.0 -0.0689721847708 -0.15146112589
291.225 -0.0675906822487 -0.151675755861 0.0 0.0 0.0 0.0 -0.0675906822487 -0.151675755861
291.429166667 -0.0662117127127 -0.151890197685 0.0 0.0 0.0 0.0 -0.0662117127127 -0.151890197685
291.633333333 -0.0648518402697 -0.152103316655 0.0 0.0 0.0 0.0 -0.0648518402697 -0.152103316655
291.8375 -0.0635162158027 -0.152314755969 0.0 0.0 0.0 0.0 -0.0635162158027 -0.152314755969
292.041666667 -0.0621805913359 -0.152526195283 0.0 0.0 0.0 0.0 -0.0621805913359 -0.152526195283
292.245833333 -0.0608837010897 -0.152735140086 0.0 0.0 0.0 0.0 -0.0608837010897 -0.152735140086
292.45 -0.0595894222004 -0.152943916718 0.0 0.0 0.0 0.0 -0.0595894222004 -0.152943916718
292.654166667 -0.0583122438425 -0.153151672313 0.0 0.0 0.0 0.0 -0.0583122438425 -0.153151672313
292.858333333 -0.057057449125 -0.15335809143 0.0 0.0 0.0 0.0 -0.057057449125 -0.15335809143
293.0625 -0.0558026544014 -0.153564510547 0.0 0.0 0.0 0.0 -0.0558026544014 -0.153564510547
293.266666667 -0.0545829419255 -0.153768992202 0.0 0.0 0.0 0.0 -0.0545829419255 -0.153768992202
293.470833333 -0.0533658961805 -0.153973326583 0.0 0.0 0.0 0.0 -0.0533658961805 -0.153973326583
293.675 -0.0521642275553 -0.154176876911 0.0 0.0 0.0 0.0 -0.0521642275553 -0.154176876911
293.879166667 -0.0509833110593 -0.154379369126 0.0 0.0 0.0 0.0 -0.0509833110593 -0.154379369126
294.083333333 -0.0498023945692 -0.154581861339 0.0 0.0 0.0 0.0 -0.0498023945692 -0.154581861339
294.2875 -0.0486533889255 -0.154782853007 0.0 0.0 0.0 0.0 -0.0486533889255 -0.154782853007
294.491666667 -0.0475070876985 -0.154983717505 0.0 0.0 0.0 0.0 -0.0475070876985 -0.154983717505
294.695833333 -0.0463746676286 -0.155183980154 0.0 0.0 0.0 0.0 -0.0463746676286 -0.155183980154
294.9 -0.0452615645698 -0.155383405273 0.0 0.0 0.0 0.0 -0.0452615645698 -0.155383405273
295.104166667 -0.0441484615112 -0.155582830391 0.0 0.0 0.0 0.0 -0.0441484615112 -0.155582830391
295.308333333 -0.0430644999215 -0.155781089435 0.0 0.0 0.0 0.0 -0.0430644999215 -0.155781089435
295.5125 -0.0419832667755 -0.155979239304 0.0 0.0 0.0 0.0 -0.0419832667755 -0.155979239304
295.716666667 -0.0409146089143 -0.156176923703 0.0 0.0 0.0 0.0 -0.0409146089143 -0.156176923703
295.920833333 -0.0398639989621 -0.156373940065 0.0 0.0 0.0 0.0 -0.0398639989621 -0.156373940065
296.125 -0.0388133890048 -0.156570956429 0.0 0.0 0.0 0.0 -0.0388133890048 -0.156570956429
296.329166667 -0.0377894885752 -0.156767054632 0.0 0.0 0.0 0.0 -0.0377894885752 -0.156767054632
296.533333333 -0.0367683299604 -0.156963058583 0.0 0.0 0.0 0.0 -0.0367683299604 -0.156963058583
296.7375 -0.0357586002844 -0.157158695527 0.0 0.0 0.0 0.0 -0.0357586002844 -0.157158695527
296.941666667 -0.0347657899575 -0.157353789156 0.0 0.0 0.0 0.0 -0.0347657899575 -0.157353789156
297.145833333 -0.0337729796355 -0.157548882785 0.0 0.0 0.0 0.0 -0.0337729796355 -0.157548882785
297.35 -0.0328047311288 -0.15774323379 0.0 0.0 0.0 0.0 -0.0328047311288 -0.15774323379
297.554166667 -0.0318392293269 -0.15793750175 0.0 0.0 0.0 0.0 -0.0318392293269 -0.15793750175
297.758333333 -0.0308841445248 -0.158131470193 0.0 0.0 0.0 0.0 -0.0308841445248 -0.158131470193
297.9625 -0.0299449697127 -0.158324981186 0.0 0.0 0.0 0.0 -0.0299449697127 -0.158324981186
298.166666667 -0.0290057949007 -0.158518492178 0.0 0.0 0.0 0.0 -0.0290057949007 -0.158518492178
298.370833333 -0.028089274435 -0.158711376315 0.0 0.0 0.0 0.0 -0.028089274435 -0.158711376315
298.575 -0.0271754987093 -0.158904184506 0.0 0.0 0.0 0.0 -0.0271754987093 -0.158904184506
298.779166667 -0.0262712417198 -0.159096735775 0.0 0.0 0.0 0.0 -0.0262712417198 -0.159096735775
298.983333333 -0.0253819866135 -0.159288882125 0.0 0.0 0.0 0.0 -0.0253819866135 -0.159288882125
299.1875 -0.0244927315029 -0.159481028477 0.0 0.0 0.0 0.0 -0.0244927315029 -0.159481028477
299.391666667 -0.0236244270426 -0.159672615142 0.0 0.0 0.0 0.0 -0.0236244270426 -0.159672615142
299.595833333 -0.0227588596793 -0.159864128686 0.0 0.0 0.0 0.0 -0.0227588596793 -0.159864128686
299.8 -0.021902009395 -0.16005540828 0.0 0.0 0.0 0.0 -0.021902009395 -0.16005540828
300.004166667 -0.0210593389996 -0.160246307314 0.0 0.0 0.0 0.0 -0.0210593389996 -0.160246307314
300.208333333 -0.0202166686083 -0.160437206347 0.0 0.0 0.0 0.0 -0.0202166686083 -0.160437206347
300.4125 -0.0193934187403 -0.1606275741 0.0 0.0 0.0 0.0 -0.0193934187403 -0.1606275741
300.616666667 -0.0185728934541 -0.160817867318 0.0 0.0 0.0 0.0 -0.0185728934541 -0.160817867318
300.820833333 -0.0177603660955 -0.161007934492 0.0 0.0 0.0 0.0 -0.0177603660955 -0.161007934492
301.025 -0.01696127005 -0.161197622059 0.0 0.0 0.0 0.0 -0.01696127005 -0.161197622059
301.229166667 -0.0161621740045 -0.161387309626 0.0 0.0 0.0 0.0 -0.0161621740045 -0.161387309626
301.433333333 -0.0153811168665 -0.16157646419 0.0 0.0 0.0 0.0 -0.0153811168665 -0.16157646419
301.6375 -0.0146027675295 -0.161765538747 0.0 0.0 0.0 0.0 -0.0146027675295 -0.161765538747
301.841666667 -0.0138317677817 -0.161954384004 0.0 0.0 0.0 0.0 -0.0138317677817 -0.161954384004
302.045833333 -0.013073513537 -0.162142831615 0.0 0.0 0.0 0.0 -0.013073513537 -0.162142831615
302.25 -0.0123152592885 -0.162331279227 0.0 0.0 0.0 0.0 -0.0123152592885 -0.162331279227
302.454166667 -0.0115737900214 -0.162519169502 0.0 0.0 0.0 0.0 -0.0115737900214 -0.162519169502
302.658333333 -0.0108350079474 -0.16270697055 0.0 0.0 0.0 0.0 -0.0108350079474 -0.16270697055
302.8625 -0.010102988296 -0.162894531197 0.0 0.0 0.0 0.0 -0.010102988296 -0.162894531197
303.066666667 -0.00938308216014 -0.163081661214 0.0 0.0 0.0 0.0 -0.00938308216014 -0.163081661214
303.270833333 -0.00866317602781 -0.16326879123 0.0 0.0 0.0 0.0 -0.00866317602781 -0.16326879123
303.475 -0.00795891140587 -0.163455323454 0.0 0.0 0.0 0.0 -0.00795891140587 -0.163455323454
303.679166667 -0.0072573098376 -0.163641753901 0.0 0.0 0.0 0.0 -0.0072573098376 -0.163641753901
303.883333333 -0.00656193671601 -0.163827927774 0.0 0.0 0.0 0.0 -0.00656193671601 -0.163827927774
304.0875 -0.00587809152678 -0.16401362677 0.0 0.0 0.0 0.0 -0.00587809152678 -0.16401362677
304.291666667 -0.00519424633759 -0.164199325765 0.0 0.0 0.0 0.0 -0.00519424633759 -0.164199325765
304.495833333 -0.00452499535892 -0.164384375934 0.0 0.0 0.0 0.0 -0.00452499535892 -0.164384375934
304.7 -0.00385838002751 -0.164569308929 0.0 0.0 0.0 0.0 -0.00385838002751 -0.164569308929
304.904166667 -0.00319750571433 -0.164753966404 0.0 0.0 0.0 0.0 -0.00319750571433 -0.164753966404
305.108333333 -0.00254761400935 -0.164938096808 0.0 0.0 0.0 0.0 -0.00254761400935 -0.164938096808
305.3125 -0.0018977223012 -0.165122227212 0.0 0.0 0.0 0.0 -0.0018977223012 -0.165122227212
305.516666667 -0.00126146181257 -0.165305651856 0.0 0.0 0.0 0.0 -0.00126146181257 -0.165305651856
305.720833333 -0.00062780652838 -0.165488941613 0.0 0.0 0.0 0.0 -0.00062780652838 -0.165488941613
305.925 5.54104151823e-07 -0.165671935988 0.0 0.0 0.0 0.0 5.54104151823e-07 -0.165671935988
306.129166667 0.000618442280237 -0.165854346112 0.0 0.0 0.0 0.0 0.000618442280237 -0.165854346112
306.333333333 0.00123633045329 -0.166036756236 0.0 0.0 0.0 0.0 0.00123633045329 -0.166036756236
306.5375 0.00184147588864 -0.166218401637 0.0 0.0 0.0 0.0 0.00184147588864 -0.166218401637
306.741666667 0.00244404940488 -0.166399892691 0.0 0.0 0.0 0.0 0.00244404940488 -0.166399892691
306.945833333 0.00304173813841 -0.166581069044 0.0 0.0 0.0 0.0 0.00304173813841 -0.166581069044
307.15 0.00362943352687 -0.166761601582 0.0 0.0 0.0 0.0 0.00362943352687 -0.166761601582
307.354166667 0.00421712891529 -0.16694213412 0.0 0.0 0.0 0.0 0.00421712891529 -0.16694213412
307.558333333 0.00479290366299 -0.167121844085 0.0 0.0 0.0 0.0 0.00479290366299 -0.167121844085
307.7625 0.00536614238832 -0.167301379056 0.0 0.0 0.0 0.0 0.00536614238832 -0.167301379056
307.966666667 0.00593487354031 -0.167480581682 0.0 0.0 0.0 0.0 0.00593487354031 -0.167480581682
308.170833333 0.00649406277029 -0.167659080783 0.0 0.0 0.0 0.0 0.00649406277029 -0.167659080783
308.375 0.00705325200302 -0.167837579884 0.0 0.0 0.0 0.0 0.00705325200302 -0.167837579884
308.579166667 0.00760128308079 -0.168015202163 0.0 0.0 0.0 0.0 0.00760128308079 -0.168015202163
308.783333333 0.00814681639635 -0.168192628164 0.0 0.0 0.0 0.0 0.00814681639635 -0.168192628164
308.9875 0.00868818988736 -0.168369706666 0.0 0.0 0.0 0.0 0.00868818988736 -0.168369706666
309.191666667 0.00922044791401 -0.16854602369 0.0 0.0 0.0 0.0 0.00922044791401 -0.16854602369
309.395833333 0.00975270593805 -0.168722340714 0.0 0.0 0.0 0.0 0.00975270593805 -0.168722340714
309.6 0.0102745143051 -0.16889773215 0.0 0.0 0.0 0.0 0.0102745143051 -0.16889773215
309.804166667 0.0107938652869 -0.169072905921 0.0 0.0 0.0 0.0 0.0107938652869 -0.169072905921
310.008333333 0.0113093774387 -0.169247720078 0.0 0.0 0.0 0.0 0.0113093774387 -0.169247720078
310.2125 0.0118161777731 -0.169421718132 0.0 0.0 0.0 0.0 0.0118161777731 -0.169421718132
310.416666667 0.0123229781075 -0.169595716186 0.0 0.0 0.0 0.0 0.0123229781075 -0.169595716186
310.620833333 0.0128199880092 -0.16976874673 0.0 0.0 0.0 0.0 0.0128199880092 -0.16976874673
310.825 0.0133145827238 -0.1699415386 0.0 0.0 0.0 0.0 0.0133145827238 -0.1699415386
311.029166667 0.0138056351813 -0.170113962116 0.0 0.0 0.0 0.0 0.0138056351813 -0.170113962116
311.233333333 0.0142883583698 -0.170285519482 0.0 0.0 0.0 0.0 0.0142883583698 -0.170285519482
311.4375 0.0147710815607 -0.170457076848 0.0 0.0 0.0 0.0 0.0147710815607 -0.170457076848
311.641666667 0.0152446282749 -0.170627632527 0.0 0.0 0.0 0.0 0.0152446282749 -0.170627632527
311.845833333 0.0157158035045 -0.170797929338 0.0 0.0 0.0 0.0 0.0157158035045 -0.170797929338
312.05 0.0161837106208 -0.170967852567 0.0 0.0 0.0 0.0 0.0161837106208 -0.170967852567
312.254166667 0.0166436512948 -0.17113686514 0.0 0.0 0.0 0.0 0.0166436512948 -0.17113686514
312.458333333 0.0171035919665 -0.171305877712 0.0 0.0 0.0 0.0 0.0171035919665 -0.171305877712
312.6625 0.0175549282476 -0.171473862664 0.0 0.0 0.0 0.0 0.0175549282476 -0.171473862664
312.866666667 0.0180039379385 -0.171641569752 0.0 0.0 0.0 0.0 0.0180039379385 -0.171641569752
313.070833333 0.0184499329718 -0.171808901528 0.0 0.0 0.0 0.0 0.0184499329718 -0.171808901528
313.275 0.0188883057406 -0.17197528437 0.0 0.0 0.0 0.0 0.0188883057406 -0.17197528437
313.479166667 0.0193266785094 -0.172141667212 0.0 0.0 0.0 0.0 0.0193266785094 -0.172141667212
313.683333333 0.0197569800429 -0.172307004908 0.0 0.0 0.0 0.0 0.0197569800429 -0.172307004908
313.8875 0.0201850007257 -0.172472047257 0.0 0.0 0.0 0.0 0.0201850007257 -0.172472047257
314.091666667 0.0206102410807 -0.172636715937 0.0 0.0 0.0 0.0 0.0206102410807 -0.172636715937
314.295833333 0.0210281855562 -0.172800404066 0.0 0.0 0.0 0.0 0.0210281855562 -0.172800404066
314.5 0.0214461300337 -0.172964092197 0.0 0.0 0.0 0.0 0.0214461300337 -0.172964092197
314.704166667 0.0218565000981 -0.173126725956 0.0 0.0 0.0 0.0 0.0218565000981 -0.173126725956
314.908333333 0.0222646355456 -0.173289048651 0.0 0.0 0.0 0.0 0.0222646355456 -0.173289048651
315.1125 0.0226702072522 -0.173451002459 0.0 0.0 0.0 0.0 0.0226702072522 -0.173451002459
315.316666667 0.0230687923843 -0.173611950992 0.0 0.0 0.0 0.0 0.0230687923843 -0.173611950992
315.520833333 0.0234673775145 -0.173772899523 0.0 0.0 0.0 0.0 0.0234673775145 -0.173772899523
315.725 0.0238588510172 -0.173932792418 0.0 0.0 0.0 0.0 0.0238588510172 -0.173932792418
315.929166667 0.0242481363 -0.174092360498 0.0 0.0 0.0 0.0 0.0242481363 -0.174092360498
316.133333333 0.0246350579442 -0.174251567314 0.0 0.0 0.0 0.0 0.0246350579442 -0.174251567314
316.3375 0.025015285816 -0.174409751043 0.0 0.0 0.0 0.0 0.025015285816 -0.174409751043
316.541666667 0.0253955136878 -0.174567934771 0.0 0.0 0.0 0.0 0.0253955136878 -0.174567934771
316.745833333 0.0257690607619 -0.174725069047 0.0 0.0 0.0 0.0 0.0257690607619 -0.174725069047
316.95 0.0261404658343 -0.174881866848 0.0 0.0 0.0 0.0 0.0261404658343 -0.174881866848
317.154166667 0.0265096920607 -0.175038313517 0.0 0.0 0.0 0.0 0.0265096920607 -0.175038313517
317.358333333 0.0268725013123 -0.175193726059 0.0 0.0 0.0 0.0 0.0268725013123 -0.175193726059
317.5625 0.0272353105658 -0.175349138601 0.0 0.0 0.0 0.0 0.0272353105658 -0.175349138601
317.766666667 0.027591839825 -0.175503514689 0.0 0.0 0.0 0.0 0.027591839825 -0.175503514689
317.970833333 0.0279462727949 -0.175657544804 0.0 0.0 0.0 0.0 0.0279462727949 -0.175657544804
318.175 0.0282986974769 -0.175811236058 0.0 0.0 0.0 0.0 0.0282986974769 -0.175811236058
318.379166667 0.0286449664437 -0.175963888646 0.0 0.0 0.0 0.0 0.0286449664437 -0.175963888646
318.583333333 0.0289912354088 -0.176116541234 0.0 0.0 0.0 0.0 0.0289912354088 -0.176116541234
318.7875 0.0293315969394 -0.176268176449 0.0 0.0 0.0 0.0 0.0293315969394 -0.176268176449
318.991666667 0.0296699070953 -0.176419458378 0.0 0.0 0.0 0.0 0.0296699070953 -0.176419458378
319.195833333 0.0300063662944 -0.176570415475 0.0 0.0 0.0 0.0 0.0300063662944 -0.176570415475
319.4 0.0303369159244 -0.176720335479 0.0 0.0 0.0 0.0 0.0303369159244 -0.176720335479
319.604166667 0.0306674655544 -0.176870255482 0.0 0.0 0.0 0.0 0.0306674655544 -0.176870255482
319.808333333 0.0309924537471 -0.177019182493 0.0 0.0 0.0 0.0 0.0309924537471 -0.177019182493
320.0125 0.0313154343974 -0.177167751059 0.0 0.0 0.0 0.0 0.0313154343974 -0.177167751059
320.216666667 0.0316367091596 -0.177316010213 0.0 0.0 0.0 0.0 0.0316367091596 -0.177316010213
320.420833333 0.0319523058036 -0.177463239473 0.0 0.0 0.0 0.0 0.0319523058036 -0.177463239473
320.625 0.0322679024491 -0.177610468734 0.0 0.0 0.0 0.0 0.0322679024491 -0.177610468734
320.829166667 0.0325782587058 -0.177756733877 0.0 0.0 0.0 0.0 0.0325782587058 -0.177756733877
321.033333333 0.0328866499138 -0.177902637494 0.0 0.0 0.0 0.0 0.0328866499138 -0.177902637494
321.2375 0.0331934689378 -0.178048248146 0.0 0.0 0.0 0.0 0.0331934689378 -0.178048248146
321.441666667 0.0334948270373 -0.178192841194 0.0 0.0 0.0 0.0 0.0334948270373 -0.178192841194
321.645833333 0.0337961851353 -0.178337434241 0.0 0.0 0.0 0.0 0.0337961851353 -0.178337434241
321.85 0.0340926004755 -0.178481095728 0.0 0.0 0.0 0.0 0.0340926004755 -0.178481095728
322.054166667 0.0343870917094 -0.178624394578 0.0 0.0 0.0 0.0 0.0343870917094 -0.178624394578
322.258333333 0.0346801339508 -0.1787674176 0.0 0.0 0.0 0.0 0.0346801339508 -0.1787674176
322.4625 0.0349679186425 -0.178909439803 0.0 0.0 0.0 0.0 0.0349679186425 -0.178909439803
322.666666667 0.0352557033341 -0.179051462006 0.0 0.0 0.0 0.0 0.0352557033341 -0.179051462006
322.870833333 0.0355388209544 -0.179192588094 0.0 0.0 0.0 0.0 0.0355388209544 -0.179192588094
323.075 0.0358200536644 -0.179333352264 0.0 0.0 0.0 0.0 0.0358200536644 -0.179333352264
323.279166667 0.0360999508815 -0.179473858125 0.0 0.0 0.0 0.0 0.0360999508815 -0.179473858125
323.483333333 0.0363747805642 -0.179613383827 0.0 0.0 0.0 0.0 0.0363747805642 -0.179613383827
323.6875 0.0366496102483 -0.179752909529 0.0 0.0 0.0 0.0 0.0366496102483 -0.179752909529
323.891666667 0.0369200280356 -0.179891576699 0.0 0.0 0.0 0.0 0.0369200280356 -0.179891576699
324.095833333 0.0371885981997 -0.180029884331 0.0 0.0 0.0 0.0 0.0371885981997 -0.180029884331
324.3 0.0374559374446 -0.180167951272 0.0 0.0 0.0 0.0 0.0374559374446 -0.180167951272
324.504166667 0.0377183863057 -0.180305061959 0.0 0.0 0.0 0.0 0.0377183863057 -0.180305061959
324.708333333 0.0379808351655 -0.180442172646 0.0 0.0 0.0 0.0 0.0379808351655 -0.180442172646
324.9125 0.0382391081601 -0.180578463809 0.0 0.0 0.0 0.0 0.0382391081601 -0.180578463809
325.116666667 0.0384955687923 -0.180714399291 0.0 0.0 0.0 0.0 0.0384955687923 -0.180714399291
325.320833333 0.0387508948784 -0.180850111556 0.0 0.0 0.0 0.0 0.0387508948784 -0.180850111556
325.525 0.0390014953718 -0.180984894083 0.0 0.0 0.0 0.0 0.0390014953718 -0.180984894083
325.729166667 0.0392520958651 -0.181119676611 0.0 0.0 0.0 0.0 0.0392520958651 -0.181119676611
325.933333333 0.0394987387022 -0.18125367939 0.0 0.0 0.0 0.0 0.0394987387022 -0.18125367939
326.1375 0.0397436023132 -0.181387331622 0.0 0.0 0.0 0.0 0.0397436023132 -0.181387331622
326.341666667 0.0399874202473 -0.181520777758 0.0 0.0 0.0 0.0 0.0399874202473 -0.181520777758
326.545833333 0.0402266655487 -0.181653322662 0.0 0.0 0.0 0.0 0.0402266655487 -0.181653322662
326.75 0.0404659108512 -0.181785867566 0.0 0.0 0.0 0.0 0.0404659108512 -0.181785867566
326.954166667 0.0407014001657 -0.181917672675 0.0 0.0 0.0 0.0 0.0407014001657 -0.181917672675
327.158333333 0.0409351411992 -0.182049133434 0.0 0.0 0.0 0.0 0.0409351411992 -0.182049133434
327.3625 0.0411679185657 -0.18218040469 0.0 0.0 0.0 0.0 0.0411679185657 -0.18218040469
327.566666667 0.0413962649881 -0.18231080461 0.0 0.0 0.0 0.0 0.0413962649881 -0.18231080461
327.770833333 0.0416246114094 -0.182441204529 0.0 0.0 0.0 0.0 0.0416246114094 -0.182441204529
327.975 0.0418493881898 -0.182570904248 0.0 0.0 0.0 0.0 0.0418493881898 -0.182570904248
328.179166667 0.0420724454168 -0.182700266669 0.0 0.0 0.0 0.0 0.0420724454168 -0.182700266669
328.383333333 0.0422946147327 -0.182829455507 0.0 0.0 0.0 0.0 0.0422946147327 -0.182829455507
328.5875 0.0425124840877 -0.182957803722 0.0 0.0 0.0 0.0 0.0425124840877 -0.182957803722
328.791666667 0.0427303534427 -0.183086151936 0.0 0.0 0.0 0.0 0.0427303534427 -0.183086151936
328.995833333 0.0429448253515 -0.183213838721 0.0 0.0 0.0 0.0 0.0429448253515 -0.183213838721
329.2 0.0431576042071 -0.183341195895 0.0 0.0 0.0 0.0 0.0431576042071 -0.183341195895
329.404166667 0.0433695652299 -0.183468394627 0.0 0.0 0.0 0.0 0.0433695652299 -0.183468394627
329.608333333 0.0435773471489 -0.183594783724 0.0 0.0 0.0 0.0 0.0435773471489 -0.183594783724
329.8125 0.043785129069 -0.183721172821 0.0 0.0 0.0 0.0 0.043785129069 -0.183721172821
330.016666667 0.0439896727107 -0.183846938036 0.0 0.0 0.0 0.0 0.0439896727107 -0.183846938036
330.220833333 0.0441925475884 -0.183972381748 0.0 0.0 0.0 0.0 0.0441925475884 -0.183972381748
330.425 0.0443946695603 -0.184097681298 0.0 0.0 0.0 0.0 0.0443946695603 -0.184097681298
330.629166667 0.0445927237592 -0.184222201978 0.0 0.0 0.0 0.0 0.0445927237592 -0.184222201978
330.833333333 0.0447907779573 -0.184346722658 0.0 0.0 0.0 0.0 0.0447907779573 -0.184346722658
331.0375 0.0449857410789 -0.184470655436 0.0 0.0 0.0 0.0 0.0449857410789 -0.184470655436
331.241666667 0.0451790575632 -0.184594275035 0.0 0.0 0.0 0.0 0.0451790575632 -0.184594275035
331.445833333 0.045371681407 -0.184717763841 0.0 0.0 0.0 0.0 0.045371681407 -0.184717763841
331.65 0.0455603398777 -0.184840503852 0.0 0.0 0.0 0.0 0.0455603398777 -0.184840503852
331.854166667 0.0457489983484 -0.184963243863 0.0 0.0 0.0 0.0 0.0457489983484 -0.184963243863
332.058333333 0.0459347019855 -0.185085430109 0.0 0.0 0.0 0.0 0.0459347019855 -0.185085430109
332.2625 0.0461187790104 -0.185207311512 0.0 0.0 0.0 0.0 0.0461187790104 -0.185207311512
332.466666667 0.046302219458 -0.185329074551 0.0 0.0 0.0 0.0 0.046302219458 -0.185329074551
332.670833333 0.0464817885995 -0.185450117763 0.0 0.0 0.0 0.0 0.0464817885995 -0.185450117763
332.875 0.0466613577419 -0.185571160975 0.0 0.0 0.0 0.0 0.0466613577419 -0.185571160975
333.079166667 0.0468380982939 -0.185691682493 0.0 0.0 0.0 0.0 0.0468380982939 -0.185691682493
333.283333333 0.0470132302372 -0.185811907324 0.0 0.0 0.0 0.0 0.0470132302372 -0.185811907324
333.4875 0.0471877778788 -0.185932025275 0.0 0.0 0.0 0.0 0.0471877778788 -0.185932025275
