!Created with skrf (http://scikit-rf.org).
# GHz S RI R 50.0 
!freq ReS11 ImS11 ReS21 ImS21 ReS12 ImS12 ReS22 ImS22
340.909090909 0.0498419026729 -0.202306825828 0.0 0.0 0.0 0.0 0.0498419026729 -0.202306825828
341.335227273 0.0499308790821 -0.202450120142 0.0 0.0 0.0 0.0 0.0499308790821 -0.202450120142
341.761363636 0.0500154149225 -0.202591134894 0.0 0.0 0.0 0.0 0.0500154149225 -0.202591134894
342.1875 0.050095587446 -0.202729888582 0.0 0.0 0.0 0.0 0.050095587446 -0.202729888582
342.613636364 0.0501714727249 -0.202866399544 0.0 0.0 0.0 0.0 0.0501714727249 -0.202866399544
343.039772727 0.0502431456637 -0.203000685953 0.0 0.0 0.0 0.0 0.0502431456637 -0.203000685953
343.465909091 0.050310680009 -0.203132765821 0.0 0.0 0.0 0.0 0.050310680009 -0.203132765821
343.892045455 0.050374148361 -0.203262656993 0.0 0.0 0.0 0.0 0.050374148361 -0.203262656993
344.318181818 0.0504336221841 -0.203390377155 0.0 0.0 0.0 0.0 0.0504336221841 -0.203390377155
344.744318182 0.0504885338118 -0.203515588941 0.0 0.0 0.0 0.0 0.0504885338118 -0.203515588941
345.170454545 0.0505396174024 -0.203638671422 0.0 0.0 0.0 0.0 0.0505396174024 -0.203638671422
345.596590909 0.0505869402713 -0.203759641671 0.0 0.0 0.0 0.0 0.0505869402713 -0.203759641671
346.022727273 0.0506305686576 -0.203878516597 0.0 0.0 0.0 0.0 0.0506305686576 -0.203878516597
346.448863636 0.0506705677344 -0.203995312948 0.0 0.0 0.0 0.0 0.0506705677344 -0.203995312948
346.875 0.0507070016205 -0.204110047309 0.0 0.0 0.0 0.0 0.0507070016205 -0.204110047309
347.301136364 0.0507399333918 -0.204222736105 0.0 0.0 0.0 0.0 0.0507399333918 -0.204222736105
347.727272727 0.0507694250918 -0.204333395601 0.0 0.0 0.0 0.0 0.0507694250918 -0.204333395601
348.153409091 0.0507949884568 -0.204441710068 0.0 0.0 0.0 0.0 0.0507949884568 -0.204441710068
348.579545455 0.0508172561014 -0.20454803355 0.0 0.0 0.0 0.0 0.0508172561014 -0.20454803355
349.005681818 0.0508362863117 -0.204652381712 0.0 0.0 0.0 0.0 0.0508362863117 -0.204652381712
349.431818182 0.0508521364019 -0.204754770066 0.0 0.0 0.0 0.0 0.0508521364019 -0.204754770066
349.857954545 0.0508648627251 -0.204855213964 0.0 0.0 0.0 0.0 0.0508648627251 -0.204855213964
350.284090909 0.0508745206848 -0.204953728605 0.0 0.0 0.0 0.0 0.0508745206848 -0.204953728605
350.710227273 0.0508811647462 -0.20505032903 0.0 0.0 0.0 0.0 0.0508811647462 -0.20505032903
351.136363636 0.0508848484472 -0.20514503013 0.0 0.0 0.0 0.0 0.0508848484472 -0.20514503013
351.5625 0.0508851517505 -0.205237535927 0.0 0.0 0.0 0.0 0.0508851517505 -0.205237535927
351.988636364 0.0508826191006 -0.205328177445 0.0 0.0 0.0 0.0 0.0508826191006 -0.205328177445
352.414772727 0.0508773006691 -0.205416969007 0.0 0.0 0.0 0.0 0.0508773006691 -0.205416969007
352.840909091 0.0508692457597 -0.205503924785 0.0 0.0 0.0 0.0 0.0508692457597 -0.205503924785
353.267045455 0.050858502819 -0.205589058804 0.0 0.0 0.0 0.0 0.050858502819 -0.205589058804
353.693181818 0.0508451194472 -0.205672384942 0.0 0.0 0.0 0.0 0.0508451194472 -0.205672384942
354.119318182 0.0508291424095 -0.205753916932 0.0 0.0 0.0 0.0 0.0508291424095 -0.205753916932
354.545454545 0.0508106176463 -0.205833668362 0.0 0.0 0.0 0.0 0.0508106176463 -0.205833668362
354.971590909 0.0507891834363 -0.205911361249 0.0 0.0 0.0 0.0 0.0507891834363 -0.205911361249
355.397727273 0.0507653081349 -0.205987305551 0.0 0.0 0.0 0.0 0.0507653081349 -0.205987305551
355.823863636 0.0507390346989 -0.206061514327 0.0 0.0 0.0 0.0 0.0507390346989 -0.206061514327
356.25 0.0507104053178 -0.2061340005 0.0 0.0 0.0 0.0 0.0507104053178 -0.2061340005
356.676136364 0.0506794614245 -0.206204776857 0.0 0.0 0.0 0.0 0.0506794614245 -0.206204776857
357.102272727 0.0506462437054 -0.206273856048 0.0 0.0 0.0 0.0 0.0506462437054 -0.206273856048
357.528409091 0.0506107921114 -0.206341250589 0.0 0.0 0.0 0.0 0.0506107921114 -0.206341250589
357.954545455 0.0505731458678 -0.206406972866 0.0 0.0 0.0 0.0 0.0505731458678 -0.206406972866
358.380681818 0.0505329928696 -0.206470761277 0.0 0.0 0.0 0.0 0.0505329928696 -0.206470761277
358.806818182 0.0504907361803 -0.206532906561 0.0 0.0 0.0 0.0 0.0504907361803 -0.206532906561
359.232954545 0.0504464124075 -0.206593420619 0.0 0.0 0.0 0.0 0.0504464124075 -0.206593420619
359.659090909 0.0504000574874 -0.206652315227 0.0 0.0 0.0 0.0 0.0504000574874 -0.206652315227
360.085227273 0.0503517066949 -0.206709602037 0.0 0.0 0.0 0.0 0.0503517066949 -0.206709602037
360.511363636 0.0503013946538 -0.206765292578 0.0 0.0 0.0 0.0 0.0503013946538 -0.206765292578
360.9375 0.0502491553463 -0.20681939826 0.0 0.0 0.0 0.0 0.0502491553463 -0.20681939826
361.363636364 0.0501950221227 -0.206871930371 0.0 0.0 0.0 0.0 0.0501950221227 -0.206871930371
361.789772727 0.0501387249378 -0.206922642247 0.0 0.0 0.0 0.0 0.0501387249378 -0.206922642247
362.215909091 0.050080611112 -0.206971807119 0.0 0.0 0.0 0.0 0.050080611112 -0.206971807119
362.642045455 0.0500207117225 -0.207019435842 0.0 0.0 0.0 0.0 0.0500207117225 -0.207019435842
363.068181818 0.0499590572655 -0.207065539157 0.0 0.0 0.0 0.0 0.0499590572655 -0.207065539157
363.494318182 0.0498956776655 -0.207110127697 0.0 0.0 0.0 0.0 0.0498956776655 -0.207110127697
363.920454545 0.0498306022843 -0.207153211985 0.0 0.0 0.0 0.0 0.0498306022843 -0.207153211985
364.346590909 0.0497638599303 -0.207194802434 0.0 0.0 0.0 0.0 0.0497638599303 -0.207194802434
364.772727273 0.0496954788675 -0.207234909355 0.0 0.0 0.0 0.0 0.0496954788675 -0.207234909355
365.198863636 0.0496252246155 -0.207273299742 0.0 0.0 0.0 0.0 0.0496252246155 -0.207273299742
365.625 0.0495533971098 -0.207310230874 0.0 0.0 0.0 0.0 0.0495533971098 -0.207310230874
366.051136364 0.0494800226614 -0.207345712676 0.0 0.0 0.0 0.0 0.0494800226614 -0.207345712676
366.477272727 0.0494051270839 -0.207379754972 0.0 0.0 0.0 0.0 0.0494051270839 -0.207379754972
366.903409091 0.0493287357019 -0.207412367493 0.0 0.0 0.0 0.0 0.0493287357019 -0.207412367493
367.329545455 0.0492508733591 -0.207443559869 0.0 0.0 0.0 0.0 0.0492508733591 -0.207443559869
367.755681818 0.0491715644271 -0.207473341641 0.0 0.0 0.0 0.0 0.0491715644271 -0.207473341641
368.181818182 0.0490908328135 -0.207501722251 0.0 0.0 0.0 0.0 0.0490908328135 -0.207501722251
368.607954545 0.0490084740824 -0.207528481238 0.0 0.0 0.0 0.0 0.0490084740824 -0.207528481238
369.034090909 0.0489247480251 -0.207553861326 0.0 0.0 0.0 0.0 0.0489247480251 -0.207553861326
369.460227273 0.0488396768902 -0.207577871623 0.0 0.0 0.0 0.0 0.0488396768902 -0.207577871623
369.886363636 0.0487532825052 -0.207600521156 0.0 0.0 0.0 0.0 0.0487532825052 -0.207600521156
370.3125 0.0486655862837 -0.207621818864 0.0 0.0 0.0 0.0 0.0486655862837 -0.207621818864
370.738636364 0.0485766092338 -0.207641773604 0.0 0.0 0.0 0.0 0.0485766092338 -0.207641773604
371.164772727 0.048486371965 -0.207660394152 0.0 0.0 0.0 0.0 0.048486371965 -0.207660394152
371.590909091 0.0483948946962 -0.207677689204 0.0 0.0 0.0 0.0 0.0483948946962 -0.207677689204
372.017045455 0.0483019984002 -0.207693449879 0.0 0.0 0.0 0.0 0.0483019984002 -0.207693449879
372.443181818 0.0482079089294 -0.207707905575 0.0 0.0 0.0 0.0 0.0482079089294 -0.207707905575
372.869318182 0.0481126451103 -0.207721064701 0.0 0.0 0.0 0.0 0.0481126451103 -0.207721064701
373.295454545 0.048016225417 -0.207732935591 0.0 0.0 0.0 0.0 0.048016225417 -0.207732935591
373.721590909 0.047918667978 -0.207743526506 0.0 0.0 0.0 0.0 0.047918667978 -0.207743526506
374.147727273 0.0478199905838 -0.207752845638 0.0 0.0 0.0 0.0 0.0478199905838 -0.207752845638
374.573863636 0.0477202106927 -0.207760901109 0.0 0.0 0.0 0.0 0.0477202106927 -0.207760901109
375.0 0.0476193454384 -0.207767700973 0.0 0.0 0.0 0.0 0.0476193454384 -0.207767700973
375.426136364 0.0475172373605 -0.207773047121 0.0 0.0 0.0 0.0 0.0475172373605 -0.207773047121
375.852272727 0.04741408363 -0.207777156692 0.0 0.0 0.0 0.0 0.04741408363 -0.207777156692
376.278409091 0.0473099002269 -0.207780037496 0.0 0.0 0.0 0.0 0.0473099002269 -0.207780037496
376.704545455 0.0472047028406 -0.207781697282 0.0 0.0 0.0 0.0 0.0472047028406 -0.207781697282
377.130681818 0.0470985068761 -0.207782143736 0.0 0.0 0.0 0.0 0.0470985068761 -0.207782143736
377.556818182 0.0469913274598 -0.207781384486 0.0 0.0 0.0 0.0 0.0469913274598 -0.207781384486
377.982954545 0.0468831794459 -0.2077794271 0.0 0.0 0.0 0.0 0.0468831794459 -0.2077794271
378.409090909 0.0467740774219 -0.20777627909 0.0 0.0 0.0 0.0 0.0467740774219 -0.20777627909
378.835227273 0.0466638823562 -0.207771752437 0.0 0.0 0.0 0.0 0.0466638823562 -0.207771752437
379.261363636 0.0465527671379 -0.207766052939 0.0 0.0 0.0 0.0 0.0465527671379 -0.207766052939
379.6875 0.0464407454131 -0.207759187903 0.0 0.0 0.0 0.0 0.0464407454131 -0.207759187903
380.113636364 0.0463278305914 -0.207751164585 0.0 0.0 0.0 0.0 0.0463278305914 -0.207751164585
380.539772727 0.0462140358516 -0.207741990189 0.0 0.0 0.0 0.0 0.0462140358516 -0.207741990189
380.965909091 0.0460993741471 -0.207731671871 0.0 0.0 0.0 0.0 0.0460993741471 -0.207731671871
381.392045455 0.0459838582109 -0.207720216739 0.0 0.0 0.0 0.0 0.0459838582109 -0.207720216739
381.818181818 0.045867500561 -0.207707631852 0.0 0.0 0.0 0.0 0.045867500561 -0.207707631852
382.244318182 0.0457501780724 -0.207693738718 0.0 0.0 0.0 0.0 0.0457501780724 -0.207693738718
382.670454545 0.0456320429858 -0.207678732565 0.0 0.0 0.0 0.0 0.0456320429858 -0.207678732565
383.096590909 0.0455131070628 -0.207662620282 0.0 0.0 0.0 0.0 0.0455131070628 -0.207662620282
383.522727273 0.0453933818763 -0.207645408718 0.0 0.0 0.0 0.0 0.0453933818763 -0.207645408718
383.948863636 0.0452728788148 -0.207627104678 0.0 0.0 0.0 0.0 0.0452728788148 -0.207627104678
384.375 0.0451516090875 -0.207607714927 0.0 0.0 0.0 0.0 0.0451516090875 -0.207607714927
384.801136364 0.0450295837285 -0.207587246192 0.0 0.0 0.0 0.0 0.0450295837285 -0.207587246192
385.227272727 0.0449068136013 -0.207565705156 0.0 0.0 0.0 0.0 0.0449068136013 -0.207565705156
385.653409091 0.0447831894989 -0.207542922398 0.0 0.0 0.0 0.0 0.0447831894989 -0.207542922398
386.079545455 0.0446588459683 -0.207519083218 0.0 0.0 0.0 0.0 0.0446588459683 -0.207519083218
386.505681818 0.0445337932767 -0.207494194162 0.0 0.0 0.0 0.0 0.0445337932767 -0.207494194162
386.931818182 0.0444080415432 -0.207468261742 0.0 0.0 0.0 0.0 0.0444080415432 -0.207468261742
387.357954545 0.0442816007427 -0.207441292437 0.0 0.0 0.0 0.0 0.0442816007427 -0.207441292437
387.784090909 0.0441544807103 -0.207413292692 0.0 0.0 0.0 0.0 0.0441544807103 -0.207413292692
388.210227273 0.0440266911445 -0.207384268918 0.0 0.0 0.0 0.0 0.0440266911445 -0.207384268918
388.636363636 0.0438982416113 -0.207354227496 0.0 0.0 0.0 0.0 0.0438982416113 -0.207354227496
389.0625 0.0437690352855 -0.207323007694 0.0 0.0 0.0 0.0 0.0437690352855 -0.207323007694
389.488636364 0.043639191384 -0.207290785416 0.0 0.0 0.0 0.0 0.043639191384 -0.207290785416
389.914772727 0.0435087190123 -0.20725756693 0.0 0.0 0.0 0.0 0.0435087190123 -0.20725756693
390.340909091 0.0433776271623 -0.207223358472 0.0 0.0 0.0 0.0 0.0433776271623 -0.207223358472
390.767045455 0.0432459247155 -0.207188166253 0.0 0.0 0.0 0.0 0.0432459247155 -0.207188166253
391.193181818 0.0431136204467 -0.207151996456 0.0 0.0 0.0 0.0 0.0431136204467 -0.207151996456
391.619318182 0.0429807230267 -0.207114855235 0.0 0.0 0.0 0.0 0.0429807230267 -0.207114855235
392.045454545 0.0428472410257 -0.207076748722 0.0 0.0 0.0 0.0 0.0428472410257 -0.207076748722
392.471590909 0.042713088843 -0.20703752457 0.0 0.0 0.0 0.0 0.042713088843 -0.20703752457
392.897727273 0.0425783722192 -0.206997349722 0.0 0.0 0.0 0.0 0.0425783722192 -0.206997349722
393.323863636 0.0424430993772 -0.206956230214 0.0 0.0 0.0 0.0 0.0424430993772 -0.206956230214
393.75 0.0423072784548 -0.20691417206 0.0 0.0 0.0 0.0 0.0423072784548 -0.20691417206
394.176136364 0.0421709175074 -0.206871181249 0.0 0.0 0.0 0.0 0.0421709175074 -0.206871181249
394.602272727 0.042034024511 -0.206827263749 0.0 0.0 0.0 0.0 0.042034024511 -0.206827263749
395.028409091 0.0418966073641 -0.206782425505 0.0 0.0 0.0 0.0 0.0418966073641 -0.206782425505
395.454545455 0.0417586738911 -0.20673667244 0.0 0.0 0.0 0.0 0.0417586738911 -0.20673667244
395.880681818 0.041620148867 -0.20668986034 0.0 0.0 0.0 0.0 0.041620148867 -0.20668986034
396.306818182 0.0414811259793 -0.206642147541 0.0 0.0 0.0 0.0 0.0414811259793 -0.206642147541
396.732954545 0.0413416127971 -0.206593539889 0.0 0.0 0.0 0.0 0.0413416127971 -0.206593539889
397.159090909 0.0412016168272 -0.20654404321 0.0 0.0 0.0 0.0 0.0412016168272 -0.20654404321
397.585227273 0.041061145517 -0.20649366331 0.0 0.0 0.0 0.0 0.041061145517 -0.20649366331
398.011363636 0.0409202062558 -0.206442405978 0.0 0.0 0.0 0.0 0.0409202062558 -0.206442405978
398.4375 0.0407788063776 -0.206390276982 0.0 0.0 0.0 0.0 0.0407788063776 -0.206390276982
398.863636364 0.0406369531623 -0.206337282073 0.0 0.0 0.0 0.0 0.0406369531623 -0.206337282073
399.289772727 0.0404945811565 -0.206283284951 0.0 0.0 0.0 0.0 0.0404945811565 -0.206283284951
399.715909091 0.0403517730597 -0.206228435637 0.0 0.0 0.0 0.0 0.0403517730597 -0.206228435637
400.142045455 0.0402085359694 -0.206172739813 0.0 0.0 0.0 0.0 0.0402085359694 -0.206172739813
400.568181818 0.0400648769393 -0.206116203147 0.0 0.0 0.0 0.0 0.0400648769393 -0.206116203147
400.994318182 0.0399208029806 -0.206058831289 0.0 0.0 0.0 0.0 0.0399208029806 -0.206058831289
401.420454545 0.0397763210638 -0.206000629873 0.0 0.0 0.0 0.0 0.0397763210638 -0.206000629873
401.846590909 0.0396314381201 -0.205941604514 0.0 0.0 0.0 0.0 0.0396314381201 -0.205941604514
402.272727273 0.0394861610432 -0.205881760813 0.0 0.0 0.0 0.0 0.0394861610432 -0.205881760813
402.698863636 0.0393404337324 -0.205820970193 0.0 0.0 0.0 0.0 0.0393404337324 -0.205820970193
403.125 0.0391943286747 -0.2057593746 0.0 0.0 0.0 0.0 0.0391943286747 -0.2057593746
403.551136364 0.0390478526359 -0.205696979574 0.0 0.0 0.0 0.0 0.0390478526359 -0.205696979574
403.977272727 0.0389010123515 -0.205633790641 0.0 0.0 0.0 0.0 0.0389010123515 -0.205633790641
404.403409091 0.0387538145276 -0.205569813311 0.0 0.0 0.0 0.0 0.0387538145276 -0.205569813311
404.829545455 0.0386062658419 -0.205505053078 0.0 0.0 0.0 0.0 0.0386062658419 -0.205505053078
405.255681818 0.0384583729449 -0.205439515421 0.0 0.0 0.0 0.0 0.0384583729449 -0.205439515421
405.681818182 0.0383101424609 -0.205373205803 0.0 0.0 0.0 0.0 0.0383101424609 -0.205373205803
406.107954545 0.0381615273563 -0.205306003187 0.0 0.0 0.0 0.0 0.0381615273563 -0.205306003187
406.534090909 0.0380125904534 -0.205238041656 0.0 0.0 0.0 0.0 0.0380125904534 -0.205238041656
406.960227273 0.037863338288 -0.205169326616 0.0 0.0 0.0 0.0 0.037863338288 -0.205169326616
407.386363636 0.0377137773746 -0.205099863461 0.0 0.0 0.0 0.0 0.0377137773746 -0.205099863461
407.8125 0.037563914207 -0.205029657566 0.0 0.0 0.0 0.0 0.037563914207 -0.205029657566
408.238636364 0.0374137552593 -0.204958714294 0.0 0.0 0.0 0.0 0.0374137552593 -0.204958714294
408.664772727 0.0372633069862 -0.204887038993 0.0 0.0 0.0 0.0 0.0372633069862 -0.204887038993
409.090909091 0.0371125758241 -0.204814636994 0.0 0.0 0.0 0.0 0.0371125758241 -0.204814636994
409.517045455 0.0369615236044 -0.204741394619 0.0 0.0 0.0 0.0 0.0369615236044 -0.204741394619
409.943181818 0.0368102038639 -0.204667438276 0.0 0.0 0.0 0.0 0.0368102038639 -0.204667438276
410.369318182 0.036658622975 -0.204592773239 0.0 0.0 0.0 0.0 0.036658622975 -0.204592773239
410.795454545 0.0365067872941 -0.20451740477 0.0 0.0 0.0 0.0 0.0365067872941 -0.20451740477
411.221590909 0.0363547031625 -0.204441338111 0.0 0.0 0.0 0.0 0.0363547031625 -0.204441338111
411.647727273 0.0362023769063 -0.204364578493 0.0 0.0 0.0 0.0 0.0362023769063 -0.204364578493
412.073863636 0.0360498148369 -0.204287131129 0.0 0.0 0.0 0.0 0.0360498148369 -0.204287131129
412.5 0.0358970232513 -0.204209001218 0.0 0.0 0.0 0.0 0.0358970232513 -0.204209001218
412.926136364 0.035743972688 -0.20413008225 0.0 0.0 0.0 0.0 0.035743972688 -0.20413008225
413.352272727 0.0355907076583 -0.204050493139 0.0 0.0 0.0 0.0 0.0355907076583 -0.204050493139
413.778409091 0.0354372344073 -0.203970239023 0.0 0.0 0.0 0.0 0.0354372344073 -0.203970239023
414.204545455 0.0352835591669 -0.203889325023 0.0 0.0 0.0 0.0 0.0352835591669 -0.203889325023
414.630681818 0.0351296881551 -0.203807756246 0.0 0.0 0.0 0.0 0.0351296881551 -0.203807756246
415.056818182 0.0349756275771 -0.20372553778 0.0 0.0 0.0 0.0 0.0349756275771 -0.20372553778
415.482954545 0.0348213836245 -0.203642674698 0.0 0.0 0.0 0.0 0.0348213836245 -0.203642674698
415.909090909 0.0346669624757 -0.203559172056 0.0 0.0 0.0 0.0 0.0346669624757 -0.203559172056
416.335227273 0.0345123432241 -0.203474930307 0.0 0.0 0.0 0.0 0.0345123432241 -0.203474930307
416.761363636 0.0343575615439 -0.203390061053 0.0 0.0 0.0 0.0 0.0343575615439 -0.203390061053
417.1875 0.0342026235627 -0.203304569285 0.0 0.0 0.0 0.0 0.0342026235627 -0.203304569285
417.613636364 0.0340475353943 -0.203218459975 0.0 0.0 0.0 0.0 0.0340475353943 -0.203218459975
418.039772727 0.0338923031384 -0.203131738079 0.0 0.0 0.0 0.0 0.0338923031384 -0.203131738079
418.465909091 0.0337369328803 -0.203044408533 0.0 0.0 0.0 0.0 0.0337369328803 -0.203044408533
418.892045455 0.033581430691 -0.202956476254 0.0 0.0 0.0 0.0 0.033581430691 -0.202956476254
419.318181818 0.0334258026265 -0.202867946142 0.0 0.0 0.0 0.0 0.0334258026265 -0.202867946142
419.744318182 0.0332700361595 -0.202778725386 0.0 0.0 0.0 0.0 0.0332700361595 -0.202778725386
420.170454545 0.0331141582827 -0.202688918469 0.0 0.0 0.0 0.0 0.0331141582827 -0.202688918469
420.596590909 0.0329581749936 -0.202598530221 0.0 0.0 0.0 0.0 0.0329581749936 -0.202598530221
421.022727273 0.0328020922729 -0.202507565449 0.0 0.0 0.0 0.0 0.0328020922729 -0.202507565449
421.448863636 0.0326459160842 -0.20241602894 0.0 0.0 0.0 0.0 0.0326459160842 -0.20241602894
421.875 0.0324896523738 -0.202323925463 0.0 0.0 0.0 0.0 0.0324896523738 -0.202323925463
422.301136364 0.0323333070698 -0.202231259763 0.0 0.0 0.0 0.0 0.0323333070698 -0.202231259763
422.727272727 0.0321768860822 -0.202138036567 0.0 0.0 0.0 0.0 0.0321768860822 -0.202138036567
423.153409091 0.0320203850374 -0.20204416954 0.0 0.0 0.0 0.0 0.0320203850374 -0.20204416954
423.579545455 0.0318638224055 -0.201949756265 0.0 0.0 0.0 0.0 0.0318638224055 -0.201949756265
424.005681818 0.0317072040224 -0.201854801388 0.0 0.0 0.0 0.0 0.0317072040224 -0.201854801388
424.431818182 0.0315505357023 -0.201759309534 0.0 0.0 0.0 0.0 0.0315505357023 -0.201759309534
424.857954545 0.0313938232377 -0.201663285303 0.0 0.0 0.0 0.0 0.0313938232377 -0.201663285303
425.284090909 0.0312370723988 -0.201566733276 0.0 0.0 0.0 0.0 0.0312370723988 -0.201566733276
425.710227273 0.0310802889324 -0.201469658009 0.0 0.0 0.0 0.0 0.0310802889324 -0.201469658009
426.136363636 0.0309234785619 -0.201372064034 0.0 0.0 0.0 0.0 0.0309234785619 -0.201372064034
426.5625 0.0307666447727 -0.201273871207 0.0 0.0 0.0 0.0 0.0307666447727 -0.201273871207
426.988636364 0.0306097977032 -0.201175170448 0.0 0.0 0.0 0.0 0.0306097977032 -0.201175170448
427.414772727 0.0304529429811 -0.2010759662 0.0 0.0 0.0 0.0 0.0304529429811 -0.2010759662
427.840909091 0.0302960862066 -0.200976262883 0.0 0.0 0.0 0.0 0.0302960862066 -0.200976262883
428.267045455 0.0301392329522 -0.200876064893 0.0 0.0 0.0 0.0 0.0301392329522 -0.200876064893
428.693181818 0.0299823887613 -0.2007753766 0.0 0.0 0.0 0.0 0.0299823887613 -0.2007753766
429.119318182 0.0298255591478 -0.200674202348 0.0 0.0 0.0 0.0 0.0298255591478 -0.200674202348
429.545454545 0.0296687495956 -0.200572546457 0.0 0.0 0.0 0.0 0.0296687495956 -0.200572546457
429.971590909 0.0295119710705 -0.200470334656 0.0 0.0 0.0 0.0 0.0295119710705 -0.200470334656
430.397727273 0.0293552256251 -0.200367651466 0.0 0.0 0.0 0.0 0.0293552256251 -0.200367651466
430.823863636 0.029198518622 -0.200264501108 0.0 0.0 0.0 0.0 0.029198518622 -0.200264501108
431.25 0.0290418553893 -0.200160887777 0.0 0.0 0.0 0.0 0.0290418553893 -0.200160887777
